(1589343272.364495) vcan11 1F1#D6A05D6FCD
(1589343272.564736) vcan11 6DA#0AFAA849FDFBC634
(1589343272.764941) vcan11 1BA#84B7BA
(1589343272.965191) vcan11 401#45156379
(1589343273.165438) vcan11 1B9#
(1589343273.365659) vcan11 44F#D6510772548C8319
(1589343273.565865) vcan11 08B#17
(1589343273.766072) vcan11 6CC#B1A2A222BD205F57
(1589343273.966293) vcan11 46F#8A43F61349431061
(1589343274.166444) vcan11 7F5#463FD715
(1589343274.366668) vcan11 6E7#1FAD553CE832810C
(1589343274.566823) vcan11 0AF#3304BF74
(1589343274.767016) vcan11 7C5#56DC134E147C
(1589343274.967171) vcan11 473#69081F67FE5C6B36
(1589343275.167355) vcan11 7DD#
(1589343275.367548) vcan11 329#664F3A7B98475C76
(1589343275.567713) vcan11 210#
(1589343275.767922) vcan11 085#B5FB31176C579832
(1589343275.968116) vcan11 0F3#558A193FA2
(1589343276.168338) vcan11 339#0BE42820FEBA9C0D
(1589343276.368786) vcan11 36F#13
(1589343276.569025) vcan11 68D#E0DC04796BCE5D42
(1589343276.769251) vcan11 6FC#14FD3866250A4F
(1589343276.969487) vcan11 73F#BE51AB3450492C39
(1589343277.169725) vcan11 76B#
(1589343277.370009) vcan11 6C8#5D070C10BC673126
(1589343277.570186) vcan11 7E0#5EB9
(1589343277.770458) vcan11 03A#1876C229A9CBA265
(1589343277.970664) vcan11 5CA#8B4B3C28584CD25E
(1589343278.170845) vcan11 4A7#C31A3021A31B9643
(1589343278.371091) vcan11 122#C925E5016268CF
(1589343278.571332) vcan11 452#B2B1FB57BE4380
(1589343278.771613) vcan11 427#AEF3F336EFFA033C
(1589343278.971816) vcan11 413#AB623562F4536A52
(1589343279.172052) vcan11 4BD#0E0F906EF8AC2319
(1589343279.372251) vcan11 173#A178C67E3E17
(1589343279.572530) vcan11 252#9663D455F91E9F64
(1589343279.772736) vcan11 498#9D3A3528BB3DD55A
(1589343279.972982) vcan11 630#1DA6A47983FA
(1589343280.173381) vcan11 7ED#413ECA40142C5323
(1589343280.373585) vcan11 4D7#0327575FEAB84C11
(1589343280.573793) vcan11 4FB#DE0CB763B8B9E354
(1589343280.773933) vcan11 5B9#B066076E2C5F5E0C
(1589343280.974129) vcan11 113#6A76
(1589343281.174320) vcan11 37F#
(1589343281.374488) vcan11 059#D2CDE9368AEEA64E
(1589343281.574809) vcan11 561#0DE9F0354E65801F
(1589343281.775055) vcan11 3BE#6291D3429580F653
(1589343281.975249) vcan11 13D#803943653886
(1589343282.175407) vcan11 215#F13F1B02CEE78D29
(1589343282.375600) vcan11 24B#FA
(1589343282.575797) vcan11 5F3#C3D6C10D72
(1589343282.776038) vcan11 765#8A
(1589343282.976283) vcan11 61D#49DE61317E83D84D
(1589343283.176477) vcan11 34C#CDE8586D0AC7
(1589343283.376637) vcan11 6A4#A047730AE147874C
(1589343283.576837) vcan11 295#
(1589343283.777039) vcan11 77E#785C9C5FC929F253
(1589343283.977190) vcan11 4AC#272DCD
(1589343284.177307) vcan11 0D8#1264AE393DF85661
(1589343284.377430) vcan11 50C#FCE7114429C3D970
(1589343284.577636) vcan11 4F9#A746B23E45
(1589343284.777814) vcan11 59B#4F670E75
(1589343284.977957) vcan11 1A4#21C45B0739DC8E2E
(1589343285.178564) vcan11 00F#E4509D648EF7E827
(1589343285.378759) vcan11 046#5721DB7BF254F168
(1589343285.578997) vcan11 0CF#928FDE31A7B19728
(1589343285.779243) vcan11 269#E5A9EE0975
(1589343285.979675) vcan11 141#9E
(1589343286.179938) vcan11 027#7F56E63AC2E5
(1589343286.380112) vcan11 0BA#02620F5B5E02DD56
(1589343286.580349) vcan11 4BE#98DE6B
(1589343286.780588) vcan11 05E#5C949746A4587A60
(1589343286.980823) vcan11 4D8#96AD6B
(1589343287.181017) vcan11 432#4FDF9C309C565255
(1589343287.381257) vcan11 0CE#11766074
(1589343287.581429) vcan11 316#
(1589343287.781656) vcan11 1F6#FF583B6CB0DA874D
(1589343287.982041) vcan11 498#0F
(1589343288.182282) vcan11 124#25163D0E82993B
(1589343288.382484) vcan11 323#26
(1589343288.582672) vcan11 034#A3F5214A6764622F
(1589343288.782935) vcan11 4E6#03BBB4
(1589343288.983213) vcan11 627#C34F2B72
(1589343289.183450) vcan11 1C4#7AECD609BA0B4050
(1589343289.383717) vcan11 6D7#6BE6C71D6FA3A317
(1589343289.584071) vcan11 07B#C61C3207A0E11267
(1589343289.784464) vcan11 721#227B4E74446AD77F
(1589343289.984739) vcan11 56C#3F32F441A13D8B01
(1589343290.184952) vcan11 506#08A2ED
(1589343290.385118) vcan11 4D6#A0F7D464FD5A1F3C
(1589343290.585282) vcan11 61F#3BD4F5
(1589343290.785457) vcan11 771#9E23557C48
(1589343290.985661) vcan11 62F#B7C9970DAB063C37
(1589343291.186051) vcan11 583#4BE84E1EA44C4748
(1589343291.386251) vcan11 169#E8B61E48D6F67C14
(1589343291.586390) vcan11 0B6#77340816BCDDC70D
(1589343291.786642) vcan11 10B#A8C75959E10DFE1C
(1589343291.986874) vcan11 38A#DE681D59A9C14F2B
(1589343292.187301) vcan11 6AC#8DD964571D969733
(1589343292.387493) vcan11 5CF#65BC8B29FE03BF50
(1589343292.587680) vcan11 735#A90AFB07B9D4204A
(1589343292.788167) vcan11 49A#5D216812
(1589343292.988598) vcan11 662#DA7CA30A1827
(1589343293.188827) vcan11 16E#D5
(1589343293.389015) vcan11 7D0#5AE0C0175ABB3964
(1589343293.589206) vcan11 3C6#037D890F72920868
(1589343293.789440) vcan11 652#8F
(1589343293.989625) vcan11 3BD#1F88906B
(1589343294.189917) vcan11 310#AB2FA072ABD73C48
(1589343294.390145) vcan11 5BD#AF5D633E1FDCBC52
(1589343294.590578) vcan11 14F#38034600BDEA2844
(1589343294.791132) vcan11 3DA#36BDEB3EAA135451
(1589343294.991670) vcan11 48A#
(1589343295.192141) vcan11 6C8#C2F2230B1A6D7C
(1589343295.392396) vcan11 298#3B
(1589343295.592605) vcan11 045#48512D0F566B3F68
(1589343295.792844) vcan11 424#01437C
(1589343295.993065) vcan11 1FC#
(1589343296.193244) vcan11 339#08E68D2A13079921
(1589343296.393496) vcan11 146#BD1AED72D04D1B7E
(1589343296.593704) vcan11 0CE#21
(1589343296.793905) vcan11 5C8#B1942D
(1589343296.994092) vcan11 435#B6CE45007ABC0E3F
(1589343297.194290) vcan11 748#D0274E276C0BC450
(1589343297.394457) vcan11 0F2#4D
(1589343297.594739) vcan11 381#3A6E7B7EBA86907E
(1589343297.794959) vcan11 487#CD8D
(1589343297.995213) vcan11 781#9E4337004F38A952
(1589343298.195457) vcan11 24B#E65F5A5A14C82329
(1589343298.395688) vcan11 2A2#75A0BB42D74EE720
(1589343298.595930) vcan11 285#520BF65FCD795D72
(1589343298.796163) vcan11 72A#3985
(1589343298.996363) vcan11 5F4#0AA3CB7B75A9
(1589343299.196827) vcan11 5D5#30304924
(1589343299.397062) vcan11 587#2AA0836B085DD335
(1589343299.597270) vcan11 688#57957C08D3F81A13
(1589343299.797771) vcan11 587#E7C03E3C2968F15A
(1589343299.997998) vcan11 1D6#01B7D87B5B646277
(1589343300.198269) vcan11 088#28DEBF
(1589343300.398458) vcan11 575#CE
(1589343300.598890) vcan11 5E7#DF3CDA67BCB32B75
(1589343300.799119) vcan11 41D#195E935EA4A98811
(1589343300.999405) vcan11 30C#AC065C
(1589343301.199583) vcan11 20B#688A3A
(1589343301.399820) vcan11 141#BB1FEC1D177B0E03
(1589343301.600316) vcan11 4AC#72DF707A347D6F38
(1589343301.800846) vcan11 10F#E6DCDF4C858EA658
(1589343302.001049) vcan11 0FB#EE21C81A
(1589343302.201273) vcan11 78C#9F5A4466A9E32E27
(1589343302.401496) vcan11 3DC#4D8DB738E9F65B5F
(1589343302.601770) vcan11 6FB#7D887B070699C044
(1589343302.802023) vcan11 7FD#9850BB073E
(1589343303.002604) vcan11 635#563CAA05
(1589343303.202839) vcan11 710#1588126920E0FF34
(1589343303.403110) vcan11 163#A56EA60D5EFA5D75
(1589343303.603360) vcan11 1AF#41A176
(1589343303.803611) vcan11 761#E5
(1589343304.003850) vcan11 499#26B2
(1589343304.204373) vcan11 62C#9B044265
(1589343304.404617) vcan11 589#67677066
(1589343304.604863) vcan11 588#9FB6364E980C1152
(1589343304.805058) vcan11 786#B8EC1007
(1589343305.005474) vcan11 3AF#4793DF455E753368
(1589343305.205711) vcan11 3F1#9AE6211C52DB3668
(1589343305.405930) vcan11 06A#8F960D2203E5A30A
(1589343305.606067) vcan11 5B1#9850252BDD93
(1589343305.806212) vcan11 35A#063AD102
(1589343306.006339) vcan11 268#A27CE65CF06F0910
(1589343306.206511) vcan11 52B#88
(1589343306.406727) vcan11 1F6#9A
(1589343306.606877) vcan11 49E#048B
(1589343306.807148) vcan11 56B#E18B3F23D5955A7D
(1589343307.007349) vcan11 51D#D8
(1589343307.207546) vcan11 327#AC
(1589343307.407764) vcan11 0A5#64BF
(1589343307.608004) vcan11 220#FD3AF9504C7F
(1589343307.808221) vcan11 748#FD8348783E
(1589343308.008434) vcan11 0C6#E3F6DA5565E5211A
(1589343308.208604) vcan11 27A#F4952A55E5B798
(1589343308.408777) vcan11 385#BA4DF363A2A0
(1589343308.608963) vcan11 447#716B
(1589343308.809168) vcan11 403#EF9DC01AA8B4A062
(1589343309.009399) vcan11 2CF#B57F90
(1589343309.209559) vcan11 15A#3C1C
(1589343309.409768) vcan11 238#E0E94F59FE92DC43
(1589343309.610014) vcan11 1D1#6378FE
(1589343309.810236) vcan11 2AB#30CC26543056831E
(1589343310.010502) vcan11 02E#D3F6614B75744A69
(1589343310.210764) vcan11 27D#E3238F27
(1589343310.410984) vcan11 461#292B
(1589343310.611207) vcan11 725#202C69097FB82328
(1589343310.811467) vcan11 591#21C13A7BC9D77965
(1589343311.011705) vcan11 096#C7
(1589343311.211981) vcan11 3C5#B3BEB20B70EE9040
(1589343311.412170) vcan11 183#A04414
(1589343311.612366) vcan11 4CE#26965B
(1589343311.812602) vcan11 5B7#CBFD207F18CAFD3F
(1589343312.012889) vcan11 3DB#49598377
(1589343312.213118) vcan11 3D3#80533D5A6439122C
(1589343312.413319) vcan11 5C6#2D
(1589343312.613557) vcan11 7A3#C360FA43
(1589343312.813773) vcan11 71F#D839496EA250
(1589343313.014081) vcan11 25A#5372C662284F7A47
(1589343313.214343) vcan11 1EC#73D67903A357D570
(1589343313.414614) vcan11 282#BC21D3305D3E4762
(1589343313.615103) vcan11 533#5ED9601406
(1589343313.815325) vcan11 06E#6A0AC64134CE323C
(1589343314.015519) vcan11 17F#90840862220119
(1589343314.215958) vcan11 78B#8A4CD11B
(1589343314.416216) vcan11 4CA#4D47
(1589343314.616459) vcan11 4DB#4C
(1589343314.816718) vcan11 21A#6A1621409D84160B
(1589343315.016944) vcan11 0FE#FAC25D6D31A6
(1589343315.217275) vcan11 32B#3777F72F9AB38D42
(1589343315.417527) vcan11 136#CE
(1589343315.618053) vcan11 538#D80B8C22C3344453
(1589343315.818517) vcan11 3B3#6E2BB0
(1589343316.018771) vcan11 6C5#A29FB221A0E3EF1F
(1589343316.218998) vcan11 45D#67A23B6F77EEC202
(1589343316.419223) vcan11 2AE#1473
(1589343316.619415) vcan11 0F8#DDC1970B24A49B39
(1589343316.819649) vcan11 267#BE57297C
(1589343317.019849) vcan11 2B5#54A6C521ED575C72
(1589343317.219976) vcan11 7EB#B08CA0459ECB7E62
(1589343317.420190) vcan11 28F#1CBCFA5E55E9264B
(1589343317.620352) vcan11 2DB#F5CC166B3857DB7A
(1589343317.820577) vcan11 1AC#AF459E7D5A6C9F0D
(1589343318.020826) vcan11 02F#0688F37E
(1589343318.221065) vcan11 6D3#4BBD9B
(1589343318.421283) vcan11 2F7#D85CF770AC3D6773
(1589343318.621450) vcan11 696#9995C36581CE6136
(1589343318.821669) vcan11 559#209AE018E8BFBD59
(1589343319.021863) vcan11 269#3DA9E4244405D76E
(1589343319.222789) vcan11 1FA#7C5CB2
(1589343319.422958) vcan11 590#01183915BF0DFD73
(1589343319.623095) vcan11 2EF#E626FD1DC24977
(1589343319.823329) vcan11 1EB#FD0A
(1589343320.023538) vcan11 13B#8FAA3958D1
(1589343320.223674) vcan11 302#53B66E725B20DF57
(1589343320.423836) vcan11 272#43E09C
(1589343320.623973) vcan11 6AF#1F
(1589343320.824125) vcan11 7B4#4F044D0344E5CA50
(1589343321.024298) vcan11 0C7#
(1589343321.224420) vcan11 458#79E52F2A43A66A4B
(1589343321.424603) vcan11 61B#25133D3057F7
(1589343321.624880) vcan11 04B#28DFC801
(1589343321.825151) vcan11 5DD#A8E30E6E4F60D52F
(1589343322.025385) vcan11 5EE#2B9DEB2D9D8CB102
(1589343322.225651) vcan11 56D#46E5647E214DAA5C
(1589343322.425884) vcan11 5E6#6532752DADBE
(1589343322.626086) vcan11 5E6#635A21603EC2EA46
(1589343322.826334) vcan11 751#816855126D3D6039
(1589343323.026531) vcan11 052#C4341C7F9E88FC
(1589343323.226703) vcan11 15B#EB4B2C5D38377D11
(1589343323.426877) vcan11 168#88975241
(1589343323.627000) vcan11 380#F41B55
(1589343323.827157) vcan11 3FD#0E8EBE3DE3918F7B
(1589343324.027305) vcan11 2D0#9050F8
(1589343324.227422) vcan11 5DB#F5B28E58
(1589343324.427604) vcan11 2D0#9962D36B231B08
(1589343324.627806) vcan11 71E#C1A3040E79D07F78
(1589343324.828063) vcan11 34A#B207FD09B254F160
(1589343325.028267) vcan11 740#08E49455C0125321
(1589343325.228504) vcan11 3ED#AD536702EAE7A444
(1589343325.428692) vcan11 137#CE79344007EC0F3A
(1589343325.628940) vcan11 22E#BEDCB34B0988CA08
(1589343325.829171) vcan11 552#36AD3D3B
(1589343326.029435) vcan11 32B#467BB95249429D3C
(1589343326.229665) vcan11 72D#C2121D357752D5
(1589343326.429840) vcan11 6B3#29A7C65E
(1589343326.630024) vcan11 1AE#B4
(1589343326.830156) vcan11 32E#8675
(1589343327.030268) vcan11 61D#6C78F97D
(1589343327.230380) vcan11 1B2#55A05F1A052F442B
(1589343327.430648) vcan11 4DF#288FF5360A90167D
(1589343327.630827) vcan11 55B#53D2B3398804AF0E
(1589343327.831079) vcan11 175#FF56840C28
(1589343328.031261) vcan11 78A#1C66B73838B95438
(1589343328.231424) vcan11 159#D4
(1589343328.431555) vcan11 333#ECA0D56450B1B668
(1589343328.631775) vcan11 3AE#9CC94B7A6065B705
(1589343328.832270) vcan11 684#6594
(1589343329.032436) vcan11 77D#6DE38217D814F766
(1589343329.232627) vcan11 5FB#
(1589343329.432992) vcan11 2D5#998F69125F9AF26D
(1589343329.633180) vcan11 687#98534726E1
(1589343329.833412) vcan11 486#680C082EB9D7012A
(1589343330.033642) vcan11 6C6#0A89B81274
(1589343330.233837) vcan11 6AE#D467ED003235
(1589343330.434233) vcan11 498#9588953C1674F80B
(1589343330.634412) vcan11 7C7#EE88
(1589343330.834989) vcan11 1C2#33A5876797BC5665
(1589343331.035229) vcan11 2AE#F756495336813558
(1589343331.235750) vcan11 282#1779516508C7986C
(1589343331.436007) vcan11 4FB#C29E9A16C19BA047
(1589343331.636534) vcan11 2D4#359ED64282F9E31B
(1589343331.836757) vcan11 272#B42E0D3E0B370758
(1589343332.036962) vcan11 243#21ABFF630B22870F
(1589343332.237167) vcan11 34B#CE6F011B0D450A74
(1589343332.437386) vcan11 65E#A5
(1589343332.637596) vcan11 1CE#436A7A0250748C41
(1589343332.837804) vcan11 32B#583B252E26485F43
(1589343333.038002) vcan11 0D9#E7E3FF0AAE9B5C21
(1589343333.238245) vcan11 1E6#3095403D597C6A24
(1589343333.438674) vcan11 025#64B3717C69
(1589343333.638917) vcan11 32E#74ACCE167A
(1589343333.839115) vcan11 294#87E3
(1589343334.039363) vcan11 143#00522A21117BD330
(1589343334.239607) vcan11 5C8#61EF5F
(1589343334.439781) vcan11 79D#19895B2876089606
(1589343334.639917) vcan11 4D4#
(1589343334.840091) vcan11 71C#1483C27742
(1589343335.040214) vcan11 53A#AB01141A68787156
(1589343335.240344) vcan11 4FD#E2161D1B9127060C
(1589343335.440578) vcan11 261#8490EB02A4FB0B17
(1589343335.640805) vcan11 796#B676DF47
(1589343335.841104) vcan11 6C7#525EA709643E2B
(1589343336.041232) vcan11 0D1#DB46C159A6950940
(1589343336.241359) vcan11 46C#619C611389439066
(1589343336.441553) vcan11 454#CBBA5C798E
(1589343336.641807) vcan11 5ED#F799D91DEAEA
(1589343336.842119) vcan11 295#7B120460F6340627
(1589343337.042354) vcan11 343#
(1589343337.242610) vcan11 584#
(1589343337.442761) vcan11 568#B062EB21399EF51A
(1589343337.643007) vcan11 5F7#DF33FF5A64426738
(1589343337.843199) vcan11 48B#
(1589343338.043369) vcan11 7B5#6EDAAF2BA245DD78
(1589343338.243517) vcan11 52E#8C30DB4CC3
(1589343338.443674) vcan11 53E#B99C1E1782D0490F
(1589343338.643914) vcan11 608#5C5BFD
(1589343338.844156) vcan11 4A4#D88F94650C
(1589343339.044386) vcan11 220#4520493618F86A0D
(1589343339.244562) vcan11 414#7C3AD2459F
(1589343339.444767) vcan11 465#7FE9D4641B142E79
(1589343339.644937) vcan11 121#BD590B724FFEE228
(1589343339.845104) vcan11 052#1266FB18905D8E5C
(1589343340.045274) vcan11 552#122ED86B5AB3947B
(1589343340.245446) vcan11 01E#E61E6912C2446D60
(1589343340.446526) vcan11 503#CEC6C07B24979341
(1589343340.646664) vcan11 148#3C8FFE4E
(1589343340.846838) vcan11 339#FC6D37039E5FFB42
(1589343341.047238) vcan11 221#B973293C428BB876
(1589343341.247487) vcan11 368#91899B1FBA539F
(1589343341.447724) vcan11 7C1#4AB12D
(1589343341.647927) vcan11 26E#6DD875548CC2FB6D
(1589343341.848392) vcan11 0CB#4F0769
(1589343342.048631) vcan11 612#F38CA0515A475A5E
(1589343342.248852) vcan11 531#B78404616AF0853F
(1589343342.449141) vcan11 5E7#095081
(1589343342.649426) vcan11 22E#4AFB
(1589343342.849623) vcan11 139#50B97817FAE8FA59
(1589343343.049803) vcan11 47E#0D0EDC32EC66A666
(1589343343.249973) vcan11 1F7#7829A254C3B2876A
(1589343343.450178) vcan11 5CE#92A8947AE0830D
(1589343343.650344) vcan11 6E5#3BCB672B16
(1589343343.850478) vcan11 1B4#81A4
(1589343344.050758) vcan11 2A5#A3A74E51D38CF03C
(1589343344.250962) vcan11 04C#69F2C9018649FA56
(1589343344.451171) vcan11 7C8#8032F530469C653A
(1589343344.651415) vcan11 653#32030C214B609541
(1589343344.851695) vcan11 708#0E131D2CD6045459
(1589343345.051868) vcan11 572#
(1589343345.252039) vcan11 125#6D10
(1589343345.452295) vcan11 3E4#747AFF0189E6DD4E
(1589343345.652462) vcan11 178#5C73CE0BC561D0
(1589343345.852653) vcan11 504#4BABCA04CC
(1589343346.052778) vcan11 17E#12893541D127C406
(1589343346.252948) vcan11 659#1C885948
(1589343346.453094) vcan11 0EE#384A085E6016A970
(1589343346.653255) vcan11 6CA#B7729776EF470F0E
(1589343346.853466) vcan11 6E1#C88ACA6DC5
(1589343347.053605) vcan11 013#4EB146038CE1E941
(1589343347.253825) vcan11 753#5143BA6F57EC770D
(1589343347.453989) vcan11 26F#23D94714ED9B8843
(1589343347.654143) vcan11 467#BFC34C4AC1
(1589343347.854430) vcan11 679#23308A4868A7AE0F
(1589343348.054597) vcan11 706#C8BD5700D03D4522
(1589343348.254750) vcan11 54B#
(1589343348.454959) vcan11 3A5#F23E9835B8EB115B
(1589343348.655158) vcan11 5C5#
(1589343348.855394) vcan11 4EB#7029795E5A
(1589343349.055628) vcan11 731#483B2A
(1589343349.256225) vcan11 4C9#5AB6556F4253FD
(1589343349.456442) vcan11 2E2#AAFAAB0FE8313A0C
(1589343349.656695) vcan11 0D8#B96F7F
(1589343349.856865) vcan11 0F3#50229E0A989CD063
(1589343350.057016) vcan11 601#5088
(1589343350.257231) vcan11 182#DF58DD5B6D
(1589343350.457369) vcan11 62A#C805AB255C65CF69
(1589343350.657480) vcan11 4E2#
(1589343350.857630) vcan11 017#EE3C5375F98A6945
(1589343351.057776) vcan11 5CC#E2BCA351A42EF71A
(1589343351.257909) vcan11 00B#C8DC6524FED8F51B
(1589343351.458117) vcan11 214#9675C67F1528EA5B
(1589343351.658342) vcan11 05A#DC43C666DCB14F
(1589343351.858601) vcan11 37C#4A185929A6B91B03
(1589343352.058811) vcan11 70A#021F
(1589343352.259081) vcan11 722#988D671F399F25
(1589343352.459280) vcan11 746#322A8F221205
(1589343352.659522) vcan11 21E#B7335B5E
(1589343352.859736) vcan11 3AF#28CBB24AC3354D53
(1589343353.059973) vcan11 797#D95D372FF16FFF20
(1589343353.260205) vcan11 6A6#CD214F0922
(1589343353.460413) vcan11 670#C84BC5267A5D9B
(1589343353.660662) vcan11 029#6601AD7F4BB7851E
(1589343353.860786) vcan11 2C2#8456AB7B09F2C91C
(1589343354.060934) vcan11 184#1BF72D60A35B89
(1589343354.261087) vcan11 7CB#CD4D
(1589343354.461275) vcan11 351#3EB1105AE8
(1589343354.661477) vcan11 1B4#D9BA0E145A9894
(1589343354.861686) vcan11 0CC#7C2A3E3E3CEFE6
(1589343355.061825) vcan11 6BE#B64C824DE8
(1589343355.261942) vcan11 110#33263870D29B9E0E
(1589343355.462183) vcan11 51B#DB8D682BA0361320
(1589343355.662368) vcan11 56F#43929C6D3A658B
(1589343355.862576) vcan11 7C9#
(1589343356.062788) vcan11 105#0336797E
(1589343356.262930) vcan11 10B#14EBE25CD851ED25
(1589343356.463151) vcan11 584#14
(1589343356.663387) vcan11 3D6#2A539E51E66CD878
(1589343356.863641) vcan11 3E8#B808770703B9C924
(1589343357.063796) vcan11 616#A3EFDC44
(1589343357.264019) vcan11 38B#BF58635454CB
(1589343357.464243) vcan11 1F6#6FB6FF13FC
(1589343357.664480) vcan11 369#B6AD86
(1589343357.864650) vcan11 550#4CBEA621D4AAE654
(1589343358.064883) vcan11 65B#16
(1589343358.265123) vcan11 52C#17
(1589343358.465396) vcan11 39F#
(1589343358.665532) vcan11 664#3A45D94DEF615479
(1589343358.865753) vcan11 3A1#432DEA0198F5D31B
(1589343359.066021) vcan11 76E#94500C
(1589343359.266204) vcan11 026#4C0FBA0A76AD634D
(1589343359.466444) vcan11 714#4A584A227045876C
(1589343359.666680) vcan11 4F9#
(1589343359.867174) vcan11 1A1#39C3047A4025D505
(1589343360.067362) vcan11 689#F5
(1589343360.267596) vcan11 70C#DC7EEF30AD8A9B4E
(1589343360.467817) vcan11 229#45806F6A9731DB25
(1589343360.668031) vcan11 7D2#6FD4DB34F85F2671
(1589343360.868294) vcan11 723#6E0D8A3E38660B31
(1589343361.068527) vcan11 153#A8AB921D4D7ED257
(1589343361.268719) vcan11 519#72D87F6EBA167F75
(1589343361.468927) vcan11 202#FB3B547B8B284403
(1589343361.669153) vcan11 0FD#
(1589343361.869396) vcan11 720#B6026A08
(1589343362.069524) vcan11 074#E0FAA13246006C67
(1589343362.269785) vcan11 3D5#3F609258F9226412
(1589343362.469967) vcan11 30A#31896F435E640A13
(1589343362.670153) vcan11 366#ABE2DC6A7F20E24F
(1589343362.870357) vcan11 022#3937614525B25279
(1589343363.070498) vcan11 6C9#B0DA967C
(1589343363.270715) vcan11 625#CF4F5A664595BA58
(1589343363.470919) vcan11 47D#8E5E8165F154
(1589343363.671159) vcan11 582#385559295729F327
(1589343363.871345) vcan11 0BE#504C573AC8DBB4
(1589343364.071513) vcan11 324#26
(1589343364.271690) vcan11 25A#09
(1589343364.471916) vcan11 5EF#A21CE7
(1589343364.672187) vcan11 177#7F0C
(1589343364.872374) vcan11 77B#E17C8C17F9FB3822
(1589343365.072610) vcan11 6D4#EA50266456842223
(1589343365.272824) vcan11 4DE#AEAD
(1589343365.473011) vcan11 399#6439873BBE7E7328
(1589343365.673251) vcan11 780#48756C39DAD9FC61
(1589343365.873505) vcan11 45C#5744
(1589343366.073695) vcan11 295#04AFB5570C9C7527
(1589343366.273918) vcan11 04C#A98347
(1589343366.474100) vcan11 7D1#C06B2367A6C66058
(1589343366.674246) vcan11 3FA#FC4A837BD8101310
(1589343366.874405) vcan11 2CD#746EE52467BE3468
(1589343367.074614) vcan11 2A9#253DA81029C2394F
(1589343367.274787) vcan11 163#039C3631C0BD956F
(1589343367.475019) vcan11 6BF#0B3871075419E024
(1589343367.675259) vcan11 154#61B5554CA0993629
(1589343367.875536) vcan11 292#6809216E64BA1E3A
(1589343368.075771) vcan11 194#0A817F128E15532B
(1589343368.275972) vcan11 1D3#6626663BA194
(1589343368.476215) vcan11 4B1#08538C615AB7A120
(1589343368.676435) vcan11 4B3#8379DB6F165E6B16
(1589343368.876674) vcan11 29A#D61B01065A81
(1589343369.076917) vcan11 5E1#AE9A
(1589343369.277157) vcan11 2F1#D6D0501284DDDB0F
(1589343369.477417) vcan11 119#E897FA49AEC2E974
(1589343369.677590) vcan11 767#3CD8
(1589343369.877753) vcan11 4F8#DB159C
(1589343370.077993) vcan11 37D#0361BA
(1589343370.278233) vcan11 110#472E1213AB3B
(1589343370.478483) vcan11 00D#05BD4B20EEE58176
(1589343370.678758) vcan11 5FF#241D9C
(1589343370.878959) vcan11 7C3#75B6FA22DC30253C
(1589343371.079193) vcan11 039#8AF30E31A0171548
(1589343371.279555) vcan11 74F#DB98593E474CEC
(1589343371.479796) vcan11 26A#F1F50473E75D
(1589343371.680015) vcan11 79A#182E8465
(1589343371.880253) vcan11 17B#554C21428821FD12
(1589343372.080445) vcan11 67C#76077F097C442F38
(1589343372.280652) vcan11 10E#6D1D4E4BD108EB3F
(1589343372.480850) vcan11 296#AD39
(1589343372.681097) vcan11 23F#70F27B158E89AD24
(1589343372.881328) vcan11 0FF#D5D5995869C3592B
(1589343373.081530) vcan11 201#502137149B51
(1589343373.281757) vcan11 2BB#466264433654B340
(1589343373.482103) vcan11 3C7#BE75B0534452FB03
(1589343373.682513) vcan11 7F6#C0962A3C
(1589343373.882737) vcan11 1CF#D5211C7065B45221
(1589343374.082927) vcan11 00F#358F
(1589343374.283124) vcan11 0BA#DC33AD75B9
(1589343374.483274) vcan11 4F0#22
(1589343374.683537) vcan11 578#8D98BF
(1589343374.883723) vcan11 5DB#694CF7
(1589343375.083961) vcan11 16E#E7B34F4764619C
(1589343375.284121) vcan11 75B#687ACD3B2BE121
(1589343375.484303) vcan11 6D4#90957411E386B400
(1589343375.684533) vcan11 7C0#3131B4517A
(1589343375.884787) vcan11 66A#340218495AB36E5C
(1589343376.085024) vcan11 6BE#4CFA44363644
(1589343376.285251) vcan11 5C9#693CD267A5637234
(1589343376.485693) vcan11 5AC#48C5
(1589343376.686019) vcan11 2F9#7F986E5E558A4857
(1589343376.886493) vcan11 3D6#806B6A47AAC283
(1589343377.086654) vcan11 725#
(1589343377.286777) vcan11 5D6#5F279D0F40CC705D
(1589343377.486981) vcan11 7CB#9B7FDF
(1589343377.687151) vcan11 0EA#C092842CB31E4D
(1589343377.887367) vcan11 4C0#5882BF7C6C9A5130
(1589343378.087537) vcan11 7FC#
(1589343378.287748) vcan11 0CF#4A2DDA79A5
(1589343378.487974) vcan11 4ED#4F47B143122CF441
(1589343378.688226) vcan11 1DB#F7D22F20B1BF3073
(1589343378.888450) vcan11 39A#F18BA15065EB
(1589343379.088690) vcan11 3EA#EF391A16D4945F6D
(1589343379.288914) vcan11 573#87B3AC353392CE7B
(1589343379.489137) vcan11 3D8#
(1589343379.689314) vcan11 580#CA96A76E503E
(1589343379.889552) vcan11 02B#F5C2BC50
(1589343380.089760) vcan11 4DF#2A11994EBA
(1589343380.289969) vcan11 321#6B
(1589343380.490439) vcan11 678#2192517162021827
(1589343380.690702) vcan11 5E9#
(1589343380.890926) vcan11 0BF#9065B10898340021
(1589343381.091175) vcan11 09D#6C28166D1EFE8223
(1589343381.291429) vcan11 055#6E3C127E81F8
(1589343381.491702) vcan11 34B#99DD90
(1589343381.691926) vcan11 1A8#E4D6EF31
(1589343381.892110) vcan11 2E5#864BC2615DB1885D
(1589343382.092284) vcan11 7AB#BFB3A004941D04
(1589343382.292447) vcan11 1B8#F1F0E60F77
(1589343382.492612) vcan11 5B3#0F
(1589343382.692849) vcan11 0B0#6E14500306797F31
(1589343382.893068) vcan11 6B2#87716B26FDE19D52
(1589343383.093259) vcan11 040#
(1589343383.293428) vcan11 5E4#B2FE023DCA101937
(1589343383.493599) vcan11 65A#27C2A11406F6644C
(1589343383.693829) vcan11 7E0#9A13694F98D158
(1589343383.894012) vcan11 0DC#0F14E3708F569715
(1589343384.094246) vcan11 30C#E06C6475BD435245
(1589343384.294513) vcan11 29B#C3BCD1764D896C77
(1589343384.494746) vcan11 22B#4B6B0A4A6B22484A
(1589343384.694986) vcan11 56A#537C
(1589343384.895432) vcan11 67E#19CC7874D8EC
(1589343385.095886) vcan11 53E#
(1589343385.296165) vcan11 427#B6BEB01704C5B754
(1589343385.496605) vcan11 304#931B4F6A1156
(1589343385.696772) vcan11 5E5#CE9938
(1589343385.896967) vcan11 1C2#CD
(1589343386.097152) vcan11 4DB#58FEC61C4502816A
(1589343386.297422) vcan11 28B#94BDE02709717671
(1589343386.497917) vcan11 5B1#E15D564AF0BAB52E
(1589343386.698178) vcan11 7EE#
(1589343386.898363) vcan11 739#19E1881C3D
(1589343387.098595) vcan11 18B#4E882D0470975359
(1589343387.298843) vcan11 520#F01F6301E28EF33E
(1589343387.499110) vcan11 0AD#CF6A721188FDB742
(1589343387.699280) vcan11 6D6#CEFF382D61599A
(1589343387.899729) vcan11 3D3#6ACA
(1589343388.099937) vcan11 710#7494A34CFE5EE716
(1589343388.300126) vcan11 10B#137BB8
(1589343388.500538) vcan11 348#82D29246D3DCC172
(1589343388.700759) vcan11 0DA#
(1589343388.900925) vcan11 4ED#DD6C98
(1589343389.101148) vcan11 5F0#23F34E40C674BD78
(1589343389.301391) vcan11 0D4#27
(1589343389.501586) vcan11 053#2B
(1589343389.701811) vcan11 0DD#
(1589343389.902036) vcan11 723#2DCA1D5A6B
(1589343390.102526) vcan11 5A2#3E4F6F2C7C860F27
(1589343390.302743) vcan11 77F#76
(1589343390.503257) vcan11 7B4#076A2E
(1589343390.703452) vcan11 100#6B92122DD4E99B57
(1589343390.903701) vcan11 01B#7B0E
(1589343391.103918) vcan11 124#D2F7BB6D01BA
(1589343391.304172) vcan11 746#E9E374
(1589343391.504717) vcan11 7A8#D4E0F70A4A4D
(1589343391.705219) vcan11 2C5#C6D3
(1589343391.905447) vcan11 393#B1B64B2B474BE975
(1589343392.105978) vcan11 190#EC683E2A90B2CB65
(1589343392.306313) vcan11 5E2#649C673DFDCDFC
(1589343392.506535) vcan11 3E9#6CCEA32E0D558E07
(1589343392.706814) vcan11 786#0E0F3135CC568B0A
(1589343392.907072) vcan11 471#36C5D55B1A348537
(1589343393.107296) vcan11 10E#6481E83ED4EB7B76
(1589343393.307791) vcan11 61D#192E3056B0C9204E
(1589343393.508022) vcan11 568#F8140A44F896F620
(1589343393.708503) vcan11 583#8949C206
(1589343393.908925) vcan11 13B#6351EA6824D55441
(1589343394.109086) vcan11 0CD#322AE3485348A723
(1589343394.309272) vcan11 60D#
(1589343394.509438) vcan11 438#982E8B4047
(1589343394.709643) vcan11 260#1BB96E257DE00A0F
(1589343394.909896) vcan11 528#2DAA2B5D
(1589343395.110114) vcan11 3FE#8829483981
(1589343395.310322) vcan11 509#E7
(1589343395.510539) vcan11 0FF#698B6C16CCE95C0D
(1589343395.710751) vcan11 619#1F32043126AC641B
(1589343395.910971) vcan11 6DB#A4A66A24141B1E0A
(1589343396.111234) vcan11 594#5BE81039F43F155A
(1589343396.311483) vcan11 53A#71202069628A
(1589343396.511729) vcan11 0AA#F21C8A69A8543957
(1589343396.711942) vcan11 1C4#2A264A4ACDC6FF76
(1589343396.912179) vcan11 18C#12
(1589343397.112442) vcan11 15B#57FC6D7474E7A768
(1589343397.312692) vcan11 616#9A930C04F1AC
(1589343397.512889) vcan11 7B4#05C855294835E86D
(1589343397.713074) vcan11 77B#
(1589343397.913531) vcan11 1D6#171F0F4380DA041B
(1589343398.113756) vcan11 04C#292F3E7210EAEA5E
(1589343398.314008) vcan11 284#DDB0EA
(1589343398.514291) vcan11 064#9B4E5919BFF1016F
(1589343398.714518) vcan11 66A#33D9
(1589343398.914764) vcan11 168#72A191651C79E237
(1589343399.114975) vcan11 70B#65AECA2587B69A
(1589343399.315376) vcan11 1D8#3C
(1589343399.515641) vcan11 14F#2F46394D
(1589343399.716101) vcan11 65D#AB033A75E1288542
(1589343399.916347) vcan11 2AB#F164CD740F9BD069
(1589343400.116580) vcan11 278#CE8CD258E218AD71
(1589343400.316798) vcan11 67E#63
(1589343400.517179) vcan11 2CE#03F10907D9
(1589343400.717736) vcan11 04C#6030FB212432CE1D
(1589343400.917956) vcan11 309#D39D0250587C8239
(1589343401.118087) vcan11 5F1#F395
(1589343401.318338) vcan11 15A#30B58B210524B358
(1589343401.518597) vcan11 627#14
(1589343401.718834) vcan11 5AE#8149
(1589343401.919113) vcan11 1E3#1344950F
(1589343402.119394) vcan11 5B9#8AFE6568061E
(1589343402.319795) vcan11 47E#2A50F20E8797105E
(1589343402.520016) vcan11 288#E01393177990BA1B
(1589343402.720224) vcan11 1FF#C71CC1
(1589343402.920397) vcan11 372#5E4F97319991A0
(1589343403.120623) vcan11 419#38C2
(1589343403.320877) vcan11 254#F3859317370C445B
(1589343403.521120) vcan11 29E#E89049335768
(1589343403.721549) vcan11 71C#5D86CF
(1589343403.921726) vcan11 65E#226B4C5FE668DE55
(1589343404.122215) vcan11 485#5FF9
(1589343404.322430) vcan11 0D5#DEC1CB48476C
(1589343404.522671) vcan11 01E#E0FD544737D44C3B
(1589343404.723036) vcan11 7AF#FE8D7212047AEF7D
(1589343404.923290) vcan11 3D2#3B
(1589343405.123515) vcan11 5F8#C796FB0E
(1589343405.323769) vcan11 697#AFB03210F5
(1589343405.524247) vcan11 3AD#DB
(1589343405.724464) vcan11 2D3#B74E2B0DA8C3A244
(1589343405.924720) vcan11 560#F02F574F7EC5
(1589343406.124876) vcan11 1D3#
(1589343406.325108) vcan11 5E9#86BBC7
(1589343406.525484) vcan11 3A5#2BE8
(1589343406.725664) vcan11 0E6#B1F6
(1589343406.925939) vcan11 417#
(1589343407.126167) vcan11 331#F7472927045EB148
(1589343407.326380) vcan11 187#AD21540DE7D6C154
(1589343407.526606) vcan11 744#669C775F17C9A55A
(1589343407.726835) vcan11 76D#9A0A7E19566D500B
(1589343407.927032) vcan11 5CF#
(1589343408.127273) vcan11 7E2#11B31454C860B90E
(1589343408.327519) vcan11 62F#4560
(1589343408.527770) vcan11 123#0BBAEF3F5414DC
(1589343408.728025) vcan11 704#5972
(1589343408.928266) vcan11 0B0#73C7B356F53F
(1589343409.128478) vcan11 5A3#0C095F001065E431
(1589343409.328725) vcan11 1F4#67D2343DC3F7
(1589343409.528969) vcan11 1C7#3791FF59A9E1635C
(1589343409.729170) vcan11 0B5#72421D6BE4969C6A
(1589343409.929443) vcan11 60B#2AC1A6202E3F53
(1589343410.129596) vcan11 76F#82532F1A73
(1589343410.329750) vcan11 537#FF4EED67E8151D63
(1589343410.530125) vcan11 1E1#DD55
(1589343410.730358) vcan11 24B#95A40F413F147250
(1589343410.930495) vcan11 290#030C072A574C3513
(1589343411.130685) vcan11 074#002E996F2979F61D
(1589343411.330907) vcan11 183#0D10
(1589343411.531087) vcan11 32A#BC0E3825997AEE55
(1589343411.731325) vcan11 46D#0CD9E93BA5C97F51
(1589343411.931571) vcan11 01A#8DDF9C34FB81C27E
(1589343412.131833) vcan11 67D#80C1ED0DC8B84457
(1589343412.332082) vcan11 453#08CDB627E3
(1589343412.532302) vcan11 511#3A53F07C854D4D56
(1589343412.732508) vcan11 645#AFC64374C857DF07
(1589343412.933050) vcan11 1AD#5627C41ED7047266
(1589343413.133484) vcan11 7F4#707F
(1589343413.333697) vcan11 051#07BE60016BC08731
(1589343413.533955) vcan11 088#66424A30
(1589343413.734143) vcan11 2FE#CE77DE555167
(1589343413.934326) vcan11 1FB#356ED4230C47
(1589343414.134750) vcan11 5E1#9294C43027941725
(1589343414.335121) vcan11 2AA#EF
(1589343414.535326) vcan11 1FD#2F39003BF2D9
(1589343414.735589) vcan11 158#
(1589343414.935859) vcan11 11D#14A2A244A591CC0B
(1589343415.136020) vcan11 1EF#AB50660AEDFC9F22
(1589343415.336167) vcan11 061#3E64B95C5D525A40
(1589343415.536312) vcan11 550#6999D1
(1589343415.736548) vcan11 3E3#59BF44528DD6A02E
(1589343415.936719) vcan11 13C#E50A2F033ABB7D12
(1589343416.137196) vcan11 68E#2C956D5AE7
(1589343416.337737) vcan11 4B5#
(1589343416.537975) vcan11 7DB#779F0731CA
(1589343416.738170) vcan11 020#B7163F
(1589343416.938420) vcan11 09D#DEAAD71AED
(1589343417.138702) vcan11 569#1FF1B9264CE1D81B
(1589343417.338953) vcan11 243#D9B7794A80FBDD71
(1589343417.539142) vcan11 3C1#BAB65B044F1A3143
(1589343417.739366) vcan11 6D4#3622DF1D8903
(1589343417.939758) vcan11 766#5B11A366419F77
(1589343418.140238) vcan11 76C#0BB9
(1589343418.340459) vcan11 0F5#0D60
(1589343418.540635) vcan11 2B7#801F58682098D408
(1589343418.740880) vcan11 734#6C79AD2477C1A911
(1589343418.941142) vcan11 118#F7BC8703D91C
(1589343419.141317) vcan11 405#28
(1589343419.341562) vcan11 797#62FE0F0AFD6EB417
(1589343419.541738) vcan11 526#3E0E2C1492FC162B
(1589343419.741980) vcan11 08F#1E0483108561765B
(1589343419.942425) vcan11 70B#17BB414AC3E1E62D
(1589343420.142691) vcan11 717#E379BB364BBE97
(1589343420.342887) vcan11 337#
(1589343420.543082) vcan11 496#28C9074A9B186007
(1589343420.743329) vcan11 06C#
(1589343420.943529) vcan11 1AF#01DF0D57D5BE
(1589343421.143721) vcan11 193#67BBF90622E22853
(1589343421.343887) vcan11 489#A7439F2E94
(1589343421.544040) vcan11 3B1#572DFC43C8921613
(1589343421.744190) vcan11 156#1451AE4E8DC4266D
(1589343421.944376) vcan11 28B#DC70E33621BFB0
(1589343422.144595) vcan11 591#BCD71028
(1589343422.344784) vcan11 255#
(1589343422.545027) vcan11 506#DA52
(1589343422.745267) vcan11 241#BB
(1589343422.945450) vcan11 5C7#5FFA98
(1589343423.145702) vcan11 322#4084A772781C
(1589343423.345930) vcan11 6F1#06E14630
(1589343423.546115) vcan11 62B#9D28
(1589343423.746280) vcan11 3E7#BA71640F3CC68476
(1589343423.946496) vcan11 389#405AD3738FE8787B
(1589343424.146693) vcan11 4BD#28077518FFA6F736
(1589343424.346926) vcan11 35C#C9557B74
(1589343424.547101) vcan11 447#9B7A6804698F033F
(1589343424.747300) vcan11 7DF#E1AB2302D046F671
(1589343424.947454) vcan11 430#4DB0635A5B7AAB
(1589343425.147690) vcan11 6CA#182EAA5FB16AAA01
(1589343425.347938) vcan11 144#ED302F
(1589343425.548174) vcan11 78E#5DAD71394CEC2273
(1589343425.748373) vcan11 048#4B931A2AA4
(1589343425.948607) vcan11 469#C77C0E0B
(1589343426.149140) vcan11 13D#1998
(1589343426.349409) vcan11 63D#ECF749386DCAEC3E
(1589343426.549593) vcan11 0E2#C9449854ACAF050F
(1589343426.749835) vcan11 124#5D
(1589343426.950099) vcan11 2B4#351FD94843528326
(1589343427.150325) vcan11 678#8F3E
(1589343427.350587) vcan11 118#64022014813DB22E
(1589343427.550839) vcan11 2EE#324691302BF40049
(1589343427.750986) vcan11 68D#47A5540FCA6C2C35
(1589343427.951164) vcan11 246#38371974
(1589343428.151291) vcan11 56D#D5
(1589343428.351698) vcan11 6E2#F9205C
(1589343428.551899) vcan11 07D#DA53C846F5DE6147
(1589343428.752107) vcan11 4C1#B5ED4A75D98DB17A
(1589343428.952314) vcan11 443#5BCB6329311F8606
(1589343429.152884) vcan11 744#5D13874FD1E53E57
(1589343429.353268) vcan11 7D8#9C526B0C
(1589343429.553547) vcan11 5D8#4805CE29
(1589343429.753715) vcan11 5D5#D7614251B7F42946
(1589343429.954312) vcan11 550#4E
(1589343430.154574) vcan11 300#C34C4146C1CF5377
(1589343430.354849) vcan11 491#9B5D0572D440D531
(1589343430.555020) vcan11 292#06605B38D799
(1589343430.755270) vcan11 283#A87FCF
(1589343430.955501) vcan11 407#7A3CAA40
(1589343431.155977) vcan11 418#261D
(1589343431.356232) vcan11 1E0#A5561F61304F9679
(1589343431.556412) vcan11 1CE#FEBC75
(1589343431.756576) vcan11 71C#9094
(1589343431.956794) vcan11 43B#82B44034CD6E3A3F
(1589343432.156955) vcan11 321#A408CB2CA455D456
(1589343432.357139) vcan11 7EB#FF7F9B17F2B33C5B
(1589343432.557276) vcan11 291#D2357568AAB69414
(1589343432.757524) vcan11 63C#97188A2F1CE8F40F
(1589343432.957694) vcan11 1F6#4D378B09C4D39561
(1589343433.157857) vcan11 430#9398493E4C53FD4C
(1589343433.358138) vcan11 60D#F9C668
(1589343433.558349) vcan11 74E#16B1357A6F3AD439
(1589343433.758620) vcan11 003#1390A810EE17C464
(1589343433.958832) vcan11 207#E1CB
(1589343434.158994) vcan11 48C#435305
(1589343434.359163) vcan11 4AC#E5B23C53A226A074
(1589343434.559363) vcan11 317#66FA
(1589343434.759570) vcan11 67E#93EA6D558BDC801F
(1589343434.959811) vcan11 01C#D41E7C5A6ADF2E7F
(1589343435.160077) vcan11 508#D91903390BBDC518
(1589343435.360325) vcan11 1A4#FAD4897DACCB4D14
(1589343435.560563) vcan11 1FF#4568BE6F8B867972
(1589343435.760759) vcan11 28E#5451C1353AF7EA04
(1589343435.960968) vcan11 762#DC1D8B7979028C2F
(1589343436.161236) vcan11 66C#C099FC
(1589343436.361425) vcan11 33C#76A90F
(1589343436.561591) vcan11 5E0#C34A400AE862C15A
(1589343436.761770) vcan11 034#F31F8773D821F00E
(1589343436.961960) vcan11 689#84ED3D2388C8DE7E
(1589343437.162167) vcan11 5C8#144F587157389C14
(1589343437.362413) vcan11 151#912F8719B4381372
(1589343437.562641) vcan11 4A2#2D3B9F210F93DD15
(1589343437.762818) vcan11 5B1#F95F6C5AED101447
(1589343437.963022) vcan11 141#467C2552218F4719
(1589343438.163288) vcan11 1B9#09F20874ED694510
(1589343438.363482) vcan11 3A7#C68B351F303A982C
(1589343438.563706) vcan11 6EA#B902772BB39C3C07
(1589343438.763953) vcan11 714#0AD5D81B65E02F48
(1589343438.964129) vcan11 235#1919433AD8960074
(1589343439.164356) vcan11 209#E729DE09BAB745
(1589343439.364612) vcan11 135#
(1589343439.564809) vcan11 350#9811CC350965CE1F
(1589343439.764982) vcan11 3F8#F7
(1589343439.965198) vcan11 59E#D071266D891C066A
(1589343440.165393) vcan11 407#3CB942711BA32C67
(1589343440.365616) vcan11 656#81835C2F8BB8
(1589343440.565810) vcan11 2E1#634F566DEBE4ED0A
(1589343440.766058) vcan11 0E1#A59C3336161A007B
(1589343440.966301) vcan11 32B#8D9C84177B96457E
(1589343441.166591) vcan11 23C#84FB131E34
(1589343441.366762) vcan11 1C6#D4ED7F4E65C78A08
(1589343441.567005) vcan11 538#EEE39072
(1589343441.767251) vcan11 42D#5B9C5A16839AB009
(1589343441.967492) vcan11 370#0E53060351BE6A33
(1589343442.167758) vcan11 477#3CA3
(1589343442.367942) vcan11 3BC#6FC7
(1589343442.568190) vcan11 52F#62B555416B4F260A
(1589343442.768374) vcan11 221#A0051818E7C3D3
(1589343442.968784) vcan11 362#4C8B5E54
(1589343443.169028) vcan11 318#DB99307A45278276
(1589343443.369269) vcan11 464#C8C13200D437
(1589343443.569525) vcan11 613#26F61C4F8A12
(1589343443.769833) vcan11 748#E2BF
(1589343443.970073) vcan11 144#EC
(1589343444.170317) vcan11 34D#DFCD41296EFD5546
(1589343444.370506) vcan11 036#56C1291298D3876C
(1589343444.570883) vcan11 6F3#3374
(1589343444.771054) vcan11 3DD#5041B24041C83A58
(1589343444.971240) vcan11 445#1600ED73589A8818
(1589343445.171520) vcan11 7EF#E2AC211E37CFB337
(1589343445.371752) vcan11 79E#3CA2DA12
(1589343445.571995) vcan11 416#57E79C7163DF8574
(1589343445.772228) vcan11 378#D2DCDB3AAE93
(1589343445.972417) vcan11 0B6#46671C3CA94F2A04
(1589343446.172706) vcan11 2CA#B5695A4EA7A60561
(1589343446.372912) vcan11 188#E96E4039CD
(1589343446.573153) vcan11 61E#25C830000DC60F14
(1589343446.773323) vcan11 53B#4495C34BD9F4B6
(1589343446.973725) vcan11 1CC#BC
(1589343447.174173) vcan11 3AA#45B549
(1589343447.374706) vcan11 24A#D09AE26F0083EC
(1589343447.574985) vcan11 03F#A9D216000A1B
(1589343447.775148) vcan11 590#B1C1BE4A19C70745
(1589343447.975318) vcan11 764#E6F4AF2C82956F2D
(1589343448.175563) vcan11 799#8F5B7F41D4046421
(1589343448.375799) vcan11 213#AEF91A
(1589343448.576006) vcan11 054#C1E9DC3BFEF3907B
(1589343448.776213) vcan11 47E#20FBDE1BC896DC
(1589343448.976412) vcan11 11E#
(1589343449.176613) vcan11 007#68
(1589343449.376844) vcan11 0D0#B03C6E1C3410CF41
(1589343449.577067) vcan11 6B4#B6A53E6F4D0E1B
(1589343449.777280) vcan11 6A3#22137F14B6
(1589343449.977477) vcan11 218#
(1589343450.177616) vcan11 43A#6B0E7325B80016
(1589343450.377725) vcan11 55E#8097F27F7DEE9A3C
(1589343450.577879) vcan11 77C#DB4F12468337D404
(1589343450.778122) vcan11 5BA#1BAD3A
(1589343450.978369) vcan11 25C#BED6BB5110792039
(1589343451.178610) vcan11 362#5E873B2C
(1589343451.378746) vcan11 5B9#
(1589343451.578871) vcan11 750#3E8A
(1589343451.778994) vcan11 5A9#430C5809083BBA24
(1589343451.979148) vcan11 236#852955
(1589343452.179400) vcan11 50C#
(1589343452.379603) vcan11 5A3#50
(1589343452.579790) vcan11 01C#10C9FC107F2BF328
(1589343452.779949) vcan11 482#8435B9603B8AFD5E
(1589343452.980091) vcan11 2EE#
(1589343453.180241) vcan11 792#C89D89583C3D6051
(1589343453.380452) vcan11 4F5#44781A762BBFC127
(1589343453.580719) vcan11 5CF#DD003635DBA2320A
(1589343453.780955) vcan11 329#A195D4
(1589343453.981468) vcan11 064#CB
(1589343454.181711) vcan11 6FF#00DC204681EBF248
(1589343454.381939) vcan11 249#BC75F027
(1589343454.582280) vcan11 1C5#7547CD3857318016
(1589343454.782510) vcan11 413#936EE06708115B06
(1589343454.982718) vcan11 749#33D01C2E18DD64
(1589343455.182933) vcan11 0A0#F3
(1589343455.383163) vcan11 324#9504C313
(1589343455.583366) vcan11 485#0A
(1589343455.783541) vcan11 73C#052F701186F90D19
(1589343455.984061) vcan11 18E#BD
(1589343456.184300) vcan11 48A#AB2C07
(1589343456.384554) vcan11 371#A6195D15BA6AF059
(1589343456.584759) vcan11 216#D3475538B60A4D7D
(1589343456.784994) vcan11 2EA#80AE8E310F06
(1589343456.985231) vcan11 55B#98F17032E0
(1589343457.185512) vcan11 076#6585
(1589343457.385784) vcan11 5AC#3991FB3C3A8F8E5F
(1589343457.585995) vcan11 12C#8E8A154BB66D
(1589343457.786272) vcan11 629#5376805D9A11A815
(1589343457.986780) vcan11 277#557C986F8DD4E67E
(1589343458.187191) vcan11 1D3#44DF337CBD34245D
(1589343458.387355) vcan11 3EE#CC3AC22E
(1589343458.587572) vcan11 0D9#2AAB5B72
(1589343458.787863) vcan11 206#03417427B2BF3706
(1589343458.988070) vcan11 4F9#ED4EC665253E8D09
(1589343459.188641) vcan11 232#DBAB0B585C48EF6C
(1589343459.388870) vcan11 0B4#F65997022BE3FC34
(1589343459.589100) vcan11 228#B9B7E333FB2BC15E
(1589343459.789265) vcan11 273#B960E53B6226F862
(1589343459.989860) vcan11 4C1#AB8F2B0A9A
(1589343460.190152) vcan11 7EA#EA0E7554F0
(1589343460.390424) vcan11 364#A341B7635E509F2D
(1589343460.590668) vcan11 229#
(1589343460.790890) vcan11 20B#B87C470BBFFA5178
(1589343460.991143) vcan11 48E#EADD4E2DB60E2E6D
(1589343461.191369) vcan11 4FA#B23AEF
(1589343461.391592) vcan11 4A0#CF6D247D6151246F
(1589343461.591875) vcan11 6F0#FCB61240DAFE563E
(1589343461.792172) vcan11 050#CB80D61BB5A3
(1589343461.992364) vcan11 5D4#13F4FE33FD37CA70
(1589343462.192772) vcan11 2FE#596C220F09BD
(1589343462.393041) vcan11 4F5#C8
(1589343462.593273) vcan11 7C0#3A28
(1589343462.793527) vcan11 356#27B48342F657825B
(1589343462.993774) vcan11 657#58A9A64A473596
(1589343463.194012) vcan11 772#2234ED30
(1589343463.394249) vcan11 63A#77FB2E510E3CB22F
(1589343463.594521) vcan11 75B#0C747C2059CA5C15
(1589343463.794646) vcan11 221#6287C15816
(1589343463.994778) vcan11 177#9A48E52937895172
(1589343464.194894) vcan11 4DC#F1F5A81A
(1589343464.395121) vcan11 3C0#2958382317D29A4E
(1589343464.595317) vcan11 40F#5E
(1589343464.795584) vcan11 1D5#
(1589343464.995813) vcan11 06D#1EC48B47C867330B
(1589343465.196037) vcan11 646#2132902067A05275
(1589343465.396157) vcan11 08F#7DCF0F
(1589343465.596308) vcan11 0AD#3D6B01548ACD47
(1589343465.796527) vcan11 0EB#BCCDFD52AB5CB12E
(1589343465.996764) vcan11 347#C22E4C7D56
(1589343466.197005) vcan11 766#D8
(1589343466.397231) vcan11 1A1#4B1187740F627D6F
(1589343466.597414) vcan11 4D7#D7C9B07A1D73D97F
(1589343466.797677) vcan11 593#84132C752226C23B
(1589343466.997902) vcan11 57C#2908
(1589343467.198292) vcan11 319#B47BA42D0584
(1589343467.398528) vcan11 495#
(1589343467.598766) vcan11 756#32B7A0
(1589343467.798956) vcan11 594#F81F9B3735B7775A
(1589343467.999198) vcan11 026#4419F5
(1589343468.199675) vcan11 6AC#1B38E8563F14500C
(1589343468.399868) vcan11 715#
(1589343468.599987) vcan11 6A2#BB42D616BB298100
(1589343468.800225) vcan11 5F1#C0ADE23F868A1537
(1589343469.000744) vcan11 7E0#62
(1589343469.200976) vcan11 5E4#F20DE316
(1589343469.401221) vcan11 39F#AD9AA81DC51BF334
(1589343469.601451) vcan11 72D#C3E0
(1589343469.801711) vcan11 70E#187A256F23762A0C
(1589343470.001960) vcan11 47F#B40AA40021934E50
(1589343470.202143) vcan11 704#
(1589343470.402319) vcan11 3DF#7B37C92ABF131221
(1589343470.602447) vcan11 10E#F58A075DF296FC57
(1589343470.802561) vcan11 372#6A7A2D1B115F435E
(1589343471.002876) vcan11 6D2#D67A3613002609
(1589343471.203431) vcan11 109#D98BDE1F1760B74C
(1589343471.403703) vcan11 479#3AD6
(1589343471.603872) vcan11 26C#196C6F0170B1F762
(1589343471.804164) vcan11 65F#665EAB563E
(1589343472.004444) vcan11 392#FE
(1589343472.204630) vcan11 7BF#922396
(1589343472.405096) vcan11 1DB#425A0A73AE386201
(1589343472.605316) vcan11 314#AE5E6B3E1D7C0D6E
(1589343472.805482) vcan11 0B2#35DCC43A2BA59B
(1589343473.005625) vcan11 079#237EBC58E5AA8933
(1589343473.205854) vcan11 35E#565C8116BDC12C5E
(1589343473.406018) vcan11 332#FCFB212BC4A65C0F
(1589343473.606182) vcan11 09D#6533F6305C88E97D
(1589343473.806349) vcan11 2ED#8D83B012C99431
(1589343474.006568) vcan11 4F4#77CD932408A8E90C
(1589343474.206760) vcan11 2E8#2524F77A9A
(1589343474.406996) vcan11 6AC#C68810592607972E
(1589343474.607235) vcan11 2CA#0BB2206228468F36
(1589343474.807508) vcan11 126#E6
(1589343475.007764) vcan11 11D#1CAB
(1589343475.208044) vcan11 5DC#17
(1589343475.408265) vcan11 579#920571606D
(1589343475.608506) vcan11 374#75D27C6F5CB6C076
(1589343475.808783) vcan11 72E#F7993528DB154D29
(1589343476.008988) vcan11 6F5#011DE457BFA99269
(1589343476.209429) vcan11 1A6#E7EF2120CC1A0C3F
(1589343476.409673) vcan11 56E#241F70778BA67518
(1589343476.609916) vcan11 3AF#46
(1589343476.810091) vcan11 0C2#55BA020B3BDE2A5B
(1589343477.010327) vcan11 003#A808BE3D778B0E
(1589343477.210494) vcan11 2F1#D441CF051F927C58
(1589343477.410668) vcan11 1B8#FAA7C901ADC8DE37
(1589343477.610843) vcan11 688#6C7271212E285E62
(1589343477.811017) vcan11 408#FB426A
(1589343478.011219) vcan11 221#0118CF5ED0552D6B
(1589343478.211407) vcan11 460#5C9FF03823D5F20F
(1589343478.411543) vcan11 2A6#5E
(1589343478.611695) vcan11 198#204E4C3E89ACDF
(1589343478.811849) vcan11 724#A93E5C78
(1589343479.012032) vcan11 3BF#8931A4
(1589343479.212234) vcan11 39F#7692C903A7
(1589343479.412398) vcan11 649#1D
(1589343479.612589) vcan11 790#3AB6476AF1631916
(1589343479.812767) vcan11 166#14390C260CDC
(1589343480.012942) vcan11 747#B59E
(1589343480.213058) vcan11 079#697572369E3F
(1589343480.413168) vcan11 4CA#7AA8
(1589343480.613283) vcan11 2B6#D1528928
(1589343480.813411) vcan11 5F9#FC854E64428444
(1589343481.013533) vcan11 2B8#ACE45E7249F2940F
(1589343481.213661) vcan11 037#3A56AE259EA140
(1589343481.413838) vcan11 07D#AA7D985AC59F0A67
(1589343481.614024) vcan11 3C0#
(1589343481.814203) vcan11 136#D863062700860D53
(1589343482.014326) vcan11 221#8A6E
(1589343482.214481) vcan11 656#2C739B0850640933
(1589343482.414613) vcan11 6A3#92E84D265C618E00
(1589343482.614785) vcan11 041#A55323107830F51D
(1589343482.814917) vcan11 026#16D23515A3583275
(1589343483.015072) vcan11 12D#68
(1589343483.215242) vcan11 421#27D95A7557750C1B
(1589343483.415394) vcan11 71C#57FB196E3DD1C870
(1589343483.615539) vcan11 152#14FE
(1589343483.815753) vcan11 33E#
(1589343484.016029) vcan11 268#3D33907AA99A3971
(1589343484.216244) vcan11 1CA#21CB
(1589343484.416464) vcan11 0C1#930A4166EE691142
(1589343484.617009) vcan11 4F9#DC1E82201A592F71
(1589343484.817547) vcan11 409#71CE3B
(1589343485.017797) vcan11 503#62740B1B557E8773
(1589343485.218230) vcan11 3AA#FDAD3E7DE85E
(1589343485.418454) vcan11 3B6#CA3097071E4E
(1589343485.618683) vcan11 681#C7E839004B08C9
(1589343485.818902) vcan11 2EA#3BBAD709AB1B604D
(1589343486.019222) vcan11 121#9A85710F1A3E0048
(1589343486.219481) vcan11 7CA#34972F39D42B
(1589343486.419678) vcan11 479#F9CE31797C
(1589343486.619891) vcan11 76D#D14F966B18635C02
(1589343486.820295) vcan11 5D2#00C2F10F8999C348
(1589343487.020623) vcan11 7C5#A7E7C35746FEE13F
(1589343487.220917) vcan11 6D2#9106AB58BC418B26
(1589343487.421138) vcan11 458#675DEB7379D5331B
(1589343487.621337) vcan11 59A#93
(1589343487.821618) vcan11 777#39792154F12321
(1589343488.021831) vcan11 06C#6DF5
(1589343488.222085) vcan11 38E#F1A2EC236141750D
(1589343488.422314) vcan11 30E#EADA
(1589343488.622480) vcan11 7BC#19
(1589343488.822691) vcan11 300#4AF0A20B5817616D
(1589343489.023052) vcan11 076#D1EC
(1589343489.223528) vcan11 0B3#751B4D3B
(1589343489.423718) vcan11 32B#1CDC5C2F97BBFB69
(1589343489.623940) vcan11 4E1#71FB8B0B6F68523E
(1589343489.824173) vcan11 6C8#D0A9
(1589343490.024633) vcan11 354#A9DC5D2B115BBE2E
(1589343490.225075) vcan11 74C#9F09
(1589343490.425378) vcan11 56C#A5F15843E22D2B38
(1589343490.625721) vcan11 79C#F3FB456E4F78
(1589343490.825967) vcan11 6DB#7A302E58068AE33F
(1589343491.026188) vcan11 417#9E45DF29F888
(1589343491.226421) vcan11 620#67F11554E8F46A25
(1589343491.426656) vcan11 771#BF4E5968C6E23A48
(1589343491.626907) vcan11 7F2#D73DF9763E67DB11
(1589343491.827119) vcan11 12B#8B41D367976E
(1589343492.027283) vcan11 160#
(1589343492.227497) vcan11 1A6#4C01426B81F0D02E
(1589343492.427651) vcan11 7D5#887AB46EEC5B
(1589343492.627849) vcan11 65D#E4E4DB5A7D1C
(1589343492.828067) vcan11 135#65117E18A6E0E232
(1589343493.028327) vcan11 184#6CC31D7B
(1589343493.228551) vcan11 38D#B5F888
(1589343493.428765) vcan11 0BA#
(1589343493.628998) vcan11 570#17137E70167FA22C
(1589343493.829174) vcan11 036#986F73
(1589343494.029341) vcan11 629#
(1589343494.229592) vcan11 246#03A13E5D7BABBA30
(1589343494.429768) vcan11 729#218C9D63ADF09438
(1589343494.629960) vcan11 28D#238242491A9E220B
(1589343494.830139) vcan11 0D1#D2B217078B99B84D
(1589343495.030320) vcan11 518#A623
(1589343495.230806) vcan11 5EB#9FA15258220E2D7A
(1589343495.431028) vcan11 320#2E760C15499155
(1589343495.631255) vcan11 357#D015814A9DA5
(1589343495.831467) vcan11 303#185164
(1589343496.031663) vcan11 13C#D9523252CA7B1014
(1589343496.231887) vcan11 4C7#E419331F997D8F24
(1589343496.432119) vcan11 7D5#24174872EE0468
(1589343496.632341) vcan11 2D9#76271829C458CE50
(1589343496.832523) vcan11 187#E666FB4AA7
(1589343497.032770) vcan11 24C#F14D0F6E
(1589343497.232992) vcan11 73B#40
(1589343497.433271) vcan11 294#6B5C811ED183CC7D
(1589343497.633555) vcan11 192#9BFFDC11
(1589343497.833740) vcan11 441#F2537B1217D46813
(1589343498.033912) vcan11 636#05D9D0100FE9C4
(1589343498.234134) vcan11 5E1#D441930D69178738
(1589343498.434473) vcan11 191#10D44046DDA38470
(1589343498.634712) vcan11 5CF#81
(1589343498.834843) vcan11 5C2#48
(1589343499.035058) vcan11 11A#2824FD
(1589343499.235266) vcan11 2F8#0541B3
(1589343499.435391) vcan11 542#50FB4C4179234565
(1589343499.635548) vcan11 00F#880C0A22F0
(1589343499.835753) vcan11 4D1#59BD6B20629E5A47
(1589343500.035919) vcan11 717#3F42DF37E67CC240
(1589343500.236092) vcan11 36B#
(1589343500.436311) vcan11 082#85D90D559C71876F
(1589343500.636578) vcan11 4EC#48DC4E66E447AF33
(1589343500.837040) vcan11 170#1D6F9361B25ECF0A
(1589343501.037302) vcan11 245#2B82147054B2223E
(1589343501.237569) vcan11 6C3#45580726
(1589343501.437730) vcan11 510#F6B15F4827D4E749
(1589343501.637960) vcan11 708#0D51AA0A745A
(1589343501.838190) vcan11 7F6#A293F94F7860B06E
(1589343502.038369) vcan11 436#14D2375E22C1EE
(1589343502.238592) vcan11 2D4#06099E7F448CF741
(1589343502.438853) vcan11 3AA#F6EAC6
(1589343502.639427) vcan11 291#4430
(1589343502.839680) vcan11 3D6#E934157AE6D8B510
(1589343503.039888) vcan11 627#
(1589343503.240281) vcan11 316#A49F92710C8B751E
(1589343503.440576) vcan11 119#85EB250D4F85
(1589343503.640786) vcan11 06D#71464144410BA62B
(1589343503.841018) vcan11 3F6#85979D6DA0376D
(1589343504.041554) vcan11 79A#8FB526112CAA2229
(1589343504.242098) vcan11 79D#81CB32
(1589343504.442312) vcan11 65C#5AC4EF56840C3D53
(1589343504.642486) vcan11 74A#B451B37C60C27021
(1589343504.842710) vcan11 783#6D4DE63F9CD82C55
(1589343505.042950) vcan11 49E#EB5D
(1589343505.243092) vcan11 68B#4CD00B4281624E68
(1589343505.443333) vcan11 3D3#21
(1589343505.643504) vcan11 24C#9A
(1589343505.843742) vcan11 584#5DC58727E1A3CB30
(1589343506.043992) vcan11 185#65B00804D0180B
(1589343506.244217) vcan11 31F#30DB7B62A36ADA46
(1589343506.444425) vcan11 371#3F43071C0F18D41E
(1589343506.644608) vcan11 18F#1ADD39351B58D827
(1589343506.844884) vcan11 587#9CBA26105B39
(1589343507.045137) vcan11 537#C9F4974B83FFFC10
(1589343507.245436) vcan11 46F#6DD94A
(1589343507.445689) vcan11 37E#D47D757B03BDBF17
(1589343507.645906) vcan11 082#D3D5CA58A2234F48
(1589343507.846174) vcan11 052#458E290F
(1589343508.046407) vcan11 1A1#D23B100E
(1589343508.246641) vcan11 2AF#4C93EF7437B8FE0F
(1589343508.446868) vcan11 652#92F1E56089DB7E61
(1589343508.647274) vcan11 2A6#0DDB7B721547BD2D
(1589343508.847494) vcan11 0BE#092167783CCC5A51
(1589343509.047936) vcan11 345#3F891A69C87BE316
(1589343509.248230) vcan11 517#6A9F32
(1589343509.448510) vcan11 017#2D21D162B8E9D45A
(1589343509.648696) vcan11 733#E924EC27E371442E
(1589343509.848873) vcan11 5EC#1A2A433E3E
(1589343510.049133) vcan11 61E#C8173A50C4A8EA5E
(1589343510.249308) vcan11 207#DAEFA70CC5
(1589343510.449552) vcan11 74F#010FEB
(1589343510.649834) vcan11 7C0#
(1589343510.850135) vcan11 753#417ADB5F6A0717
(1589343511.050392) vcan11 376#23F1EB3BA9421524
(1589343511.250616) vcan11 06D#8CB45952596EB967
(1589343511.450770) vcan11 642#98AA745660D4
(1589343511.650921) vcan11 252#
(1589343511.851051) vcan11 535#1E3FFD62845CE110
(1589343512.051272) vcan11 5E1#1957F736A22D330C
(1589343512.251504) vcan11 660#79AA7978B3DD
(1589343512.451777) vcan11 33D#1EE5EF02B326A51A
(1589343512.652014) vcan11 028#5D
(1589343512.852190) vcan11 44D#EF2649368FBA6723
(1589343513.052440) vcan11 490#EF8E0D46E2F676
(1589343513.252676) vcan11 3E7#3CF3E34C
(1589343513.452913) vcan11 112#A1A5B22DF4F61D69
(1589343513.653098) vcan11 07A#96245175DA66B709
(1589343513.853213) vcan11 231#8D44902B6EADB768
(1589343514.053386) vcan11 3CA#22D45C03F2B32161
(1589343514.253670) vcan11 7EC#886CB12F3AEC0F10
(1589343514.453873) vcan11 368#C9A67733F857DC74
(1589343514.654059) vcan11 4FF#DB4E5346E7F82426
(1589343514.854291) vcan11 1CD#0342F642DFBAF9
(1589343515.054529) vcan11 471#D3B11700
(1589343515.254726) vcan11 45F#C55B991890AEED2D
(1589343515.454936) vcan11 579#FE5BA5
(1589343515.655189) vcan11 1FE#
(1589343515.855385) vcan11 59F#25B6157008C9442F
(1589343516.055618) vcan11 536#0021212435B2D912
(1589343516.255836) vcan11 2A7#1CABFE3874D4355E
(1589343516.456038) vcan11 1F2#
(1589343516.656239) vcan11 4C4#4F1BA64F23B9F0
(1589343516.856488) vcan11 791#B367DE6F0A
(1589343517.056678) vcan11 768#4D56
(1589343517.256934) vcan11 3D2#51AB
(1589343517.457182) vcan11 540#7A2AE42B76AA
(1589343517.657403) vcan11 665#AC5CCE6E0C51CE2F
(1589343517.857620) vcan11 356#8125040E486D2538
(1589343518.057750) vcan11 4E8#AC93E978AD
(1589343518.257918) vcan11 5FC#D08250528D0D2B63
(1589343518.458071) vcan11 611#97CA0E31
(1589343518.658254) vcan11 636#DF1E4B7C
(1589343518.858488) vcan11 467#7A
(1589343519.058656) vcan11 3A7#1ECCBA41
(1589343519.258857) vcan11 16F#193B1C2DC5343B1C
(1589343519.459004) vcan11 092#0DA260547B25187C
(1589343519.659137) vcan11 56F#28EF770C6B0BCF36
(1589343519.859300) vcan11 4B6#F918FA19C70AA946
(1589343520.059483) vcan11 47C#
(1589343520.259714) vcan11 475#BBACE252DCC8411D
(1589343520.459957) vcan11 150#83EA0703F8
(1589343520.660213) vcan11 62A#04
(1589343520.860418) vcan11 76B#5E8C7348FE0FA24D
(1589343521.060623) vcan11 2B7#7935BA4926F8002A
(1589343521.260831) vcan11 425#92
(1589343521.461019) vcan11 699#A253A14616F3F155
(1589343521.661306) vcan11 01B#C8FD
(1589343521.861576) vcan11 302#6CCD63
(1589343522.061806) vcan11 2B9#
(1589343522.261992) vcan11 691#7C90E841FD4D7A13
(1589343522.462225) vcan11 26C#FB5D1C61243D0B4C
(1589343522.662688) vcan11 345#4A350C76
(1589343522.863096) vcan11 015#46F84611AE4E0336
(1589343523.063378) vcan11 567#C441F50B83557917
(1589343523.263616) vcan11 7CB#135A9B50CDEA194D
(1589343523.463792) vcan11 210#
(1589343523.664022) vcan11 770#AC7DF93E014E991E
(1589343523.864253) vcan11 0B9#FE9B133226E3EA2F
(1589343524.064487) vcan11 302#4A20F67B48766E32
(1589343524.264710) vcan11 56D#B325BD43
(1589343524.464976) vcan11 671#31941275D8E3841A
(1589343524.665221) vcan11 1E2#5B39FE31AE
(1589343524.865466) vcan11 582#7B3C713C93FFA82A
(1589343525.066013) vcan11 2EF#5C44F2535F9A032A
(1589343525.266200) vcan11 406#60E89C48BF94111F
(1589343525.466419) vcan11 031#E577FC4E34FB0B1F
(1589343525.666558) vcan11 658#7C717A51C60BE74B
(1589343525.866715) vcan11 5C4#4851F60A357CD305
(1589343526.066935) vcan11 528#0D6058200B1F2817
(1589343526.267180) vcan11 36F#B9707F06F1D0A94D
(1589343526.467325) vcan11 4D8#84D05278
(1589343526.667556) vcan11 0D0#26
(1589343526.867680) vcan11 6EA#95A951611BA7
(1589343527.067831) vcan11 6E5#4FA20A123E6DBA79
(1589343527.268006) vcan11 1AA#0479A1456EA73538
(1589343527.468164) vcan11 2FA#A323093E2360F862
(1589343527.668284) vcan11 7C6#2E
(1589343527.868530) vcan11 51A#263C5B1FF249A8
(1589343528.068833) vcan11 51B#B9313104EBA54B36
(1589343528.268995) vcan11 18C#C1BA8B7876F82343
(1589343528.469251) vcan11 665#919F22364B0DC1
(1589343528.669626) vcan11 5D2#89
(1589343528.869890) vcan11 5AC#EBE6A13DA7006F24
(1589343529.070125) vcan11 5D9#CA6067079F6D556A
(1589343529.270276) vcan11 63F#D4D8063C59ABC40A
(1589343529.470457) vcan11 7DF#4BF56C10FA6CB845
(1589343529.670703) vcan11 1A6#E612047C
(1589343529.870882) vcan11 2E3#A83B271A49F942
(1589343530.071179) vcan11 1FE#94060469D0B79858
(1589343530.271409) vcan11 51A#4DF7045EC7722944
(1589343530.471624) vcan11 4AA#6E7398688332514F
(1589343530.671859) vcan11 0C6#23A0A63906775E71
(1589343530.872057) vcan11 430#5F22237C0F84AF
(1589343531.072303) vcan11 5F2#09F1673998AF1F44
(1589343531.272545) vcan11 6AF#CAF2221B93198A62
(1589343531.472814) vcan11 197#DC12
(1589343531.673309) vcan11 1AC#
(1589343531.873576) vcan11 28D#8D9934
(1589343532.073810) vcan11 0EB#BA413E1CB179FF61
(1589343532.274038) vcan11 133#B7F05D536395542C
(1589343532.474280) vcan11 2D5#72190420C7E8A1
(1589343532.674540) vcan11 2C2#6098C16071693F7D
(1589343532.874777) vcan11 66B#0483C95F02E0D338
(1589343533.075211) vcan11 19D#
(1589343533.275435) vcan11 750#0FEACD54DD49B863
(1589343533.475644) vcan11 1B1#1459A5309CE2F27B
(1589343533.675954) vcan11 098#4D5CF25DCC719C3C
(1589343533.876173) vcan11 4AC#2F07F16881
(1589343534.076375) vcan11 01C#49C0
(1589343534.276549) vcan11 31E#4FF4215A89393971
(1589343534.476730) vcan11 3D3#8C190D2A
(1589343534.676972) vcan11 534#B960944F
(1589343534.877169) vcan11 422#6206A20BD3EDCD0E
(1589343535.077381) vcan11 666#6FD0C00AFE5E34
(1589343535.277594) vcan11 246#CAD0D019F276F32B
(1589343535.477873) vcan11 1C1#744E4E1ADDD9D41A
(1589343535.678091) vcan11 09C#BB64B777BA23186E
(1589343535.878280) vcan11 766#435D515F394BAC78
(1589343536.078517) vcan11 05F#AAE87D1193DD4667
(1589343536.278718) vcan11 3F3#189A30
(1589343536.479084) vcan11 42C#E8FDFE509262D960
(1589343536.679371) vcan11 7F2#91C10D3E38FA44
(1589343536.879596) vcan11 314#2A71380CD574765E
(1589343537.079825) vcan11 255#B34E4B79F1625766
(1589343537.280024) vcan11 65B#AB866F54C135DB5C
(1589343537.480238) vcan11 479#FB808755D8DCA04E
(1589343537.680437) vcan11 2BE#6CBAE735B2
(1589343537.880672) vcan11 308#C7DEF863
(1589343538.080929) vcan11 4FF#
(1589343538.281088) vcan11 307#29EF49171BA62A55
(1589343538.481292) vcan11 5B4#F11AA133
(1589343538.681809) vcan11 7F2#FBCA4905
(1589343538.882043) vcan11 512#0F24B6728C29
(1589343539.082293) vcan11 595#64066C2F5490994A
(1589343539.282725) vcan11 6AF#
(1589343539.483257) vcan11 555#ED08E744540A570A
(1589343539.683670) vcan11 27D#46FF5B41
(1589343539.884145) vcan11 60D#A06B346BC11B1224
(1589343540.084413) vcan11 6C3#CA
(1589343540.284635) vcan11 035#045D0C5C48
(1589343540.485147) vcan11 06C#D4367C
(1589343540.685463) vcan11 61E#55661B7ACD344346
(1589343540.885711) vcan11 609#85F69D3D5E13A809
(1589343541.085946) vcan11 329#B21D
(1589343541.286192) vcan11 227#2BE3325234D09155
(1589343541.486676) vcan11 368#F5EBA3792B5A292A
(1589343541.686912) vcan11 55D#E1C85A7093C5FE27
(1589343541.887331) vcan11 685#DBD2AF11F1
(1589343542.087616) vcan11 6F9#F234805617CD2932
(1589343542.287887) vcan11 6E7#E4016D78F0445035
(1589343542.488171) vcan11 0A3#4E58F83ECC63EF6D
(1589343542.688605) vcan11 7DC#73
(1589343542.889053) vcan11 2F9#377AF303619E5356
(1589343543.089282) vcan11 36A#8DF87C00C888EF15
(1589343543.289520) vcan11 5EC#5B4EEE3D7194363F
(1589343543.489701) vcan11 754#62F334664D8E
(1589343543.689949) vcan11 2E5#645B920A
(1589343543.890178) vcan11 39C#BDB62E3740246944
(1589343544.090647) vcan11 5B2#0C8858328F4D9A71
(1589343544.290863) vcan11 50C#92F7FB1F06187171
(1589343544.491358) vcan11 61E#67B6C44788216F12
(1589343544.691958) vcan11 7F6#50AA5E28
(1589343544.892202) vcan11 063#5342FD1AB7575876
(1589343545.092478) vcan11 1E1#04E6C04EC6
(1589343545.292711) vcan11 60A#93B69363A621384B
(1589343545.492946) vcan11 6B0#
(1589343545.693226) vcan11 45B#F241F7
(1589343545.893392) vcan11 772#6E19794B
(1589343546.093529) vcan11 34E#1967960945
(1589343546.293644) vcan11 6CA#273130482DEF9814
(1589343546.493856) vcan11 215#E446F10AF6232D4E
(1589343546.694041) vcan11 130#BD68E22F3A074722
(1589343546.894244) vcan11 650#
(1589343547.094430) vcan11 4A0#6301B524FB0822
(1589343547.294661) vcan11 4BA#630A2A192D
(1589343547.494944) vcan11 4DA#BD
(1589343547.695111) vcan11 3A7#6DABEB097172
(1589343547.895288) vcan11 240#9E61F96755
(1589343548.095476) vcan11 010#4B00
(1589343548.295760) vcan11 56A#7B00F03BBA43A27F
(1589343548.495932) vcan11 058#BA50FA0EF8143868
(1589343548.696198) vcan11 023#F41D5A27DED4A965
(1589343548.896359) vcan11 573#0BE92E434D12FB
(1589343549.096547) vcan11 429#763A7D4FD03F081D
(1589343549.296799) vcan11 39F#41B268
(1589343549.496980) vcan11 278#34B2CF2E8812CE60
(1589343549.697203) vcan11 461#C90B777ACB91E917
(1589343549.897432) vcan11 388#85D58B17
(1589343550.097636) vcan11 5A0#D9B8376EC3CD6506
(1589343550.297800) vcan11 05D#A1A20F6CD10D9139
(1589343550.497993) vcan11 724#1E208C6B4D4B3D7B
(1589343550.698449) vcan11 675#1D8B4518
(1589343550.898678) vcan11 078#F3A78D43F002F73F
(1589343551.098881) vcan11 13D#7915C5209E0D5D
(1589343551.299122) vcan11 4A6#699F
(1589343551.499319) vcan11 586#0FCCD36926637931
(1589343551.699853) vcan11 32E#E930DF378B138E5C
(1589343551.900050) vcan11 3B5#5C211F16D95AB343
(1589343552.100554) vcan11 737#27A6F03EAC2D471A
(1589343552.300813) vcan11 40F#C0FF7E57
(1589343552.501027) vcan11 6A3#78DF1D
(1589343552.701222) vcan11 1DA#7F
(1589343552.901627) vcan11 633#AF361209B943C21E
(1589343553.102075) vcan11 1D7#DFA63B50057DC30F
(1589343553.302295) vcan11 7A6#9090516C5BE38E38
(1589343553.502539) vcan11 353#353E427C8B0A377F
(1589343553.702774) vcan11 368#37387E19778FD040
(1589343553.903269) vcan11 5A0#FF6BF71143844D72
(1589343554.103828) vcan11 7AB#2444423386E173
(1589343554.304024) vcan11 068#07F0B1
(1589343554.504212) vcan11 68B#549AD9406260
(1589343554.704448) vcan11 175#67DD5A
(1589343554.904685) vcan11 0FB#77942A3E4FC43945
(1589343555.104851) vcan11 7E5#DACE70444D133962
(1589343555.305005) vcan11 708#C4
(1589343555.505156) vcan11 709#EC5056
(1589343555.705276) vcan11 23A#
(1589343555.905587) vcan11 6B3#3DF1
(1589343556.105887) vcan11 6F8#A1
(1589343556.306156) vcan11 4C4#89F1253BC0E5443A
(1589343556.506391) vcan11 100#
(1589343556.706612) vcan11 0AC#32044E0BB40F5D29
(1589343556.906791) vcan11 7FA#5CDC653104BFCA
(1589343557.107018) vcan11 5BA#B9DDC04BF50F6F3B
(1589343557.307484) vcan11 258#97AA7D68
(1589343557.507954) vcan11 636#4A8EDA472E
(1589343557.708235) vcan11 766#9C25B1232BF4B768
(1589343557.908483) vcan11 6F3#EBD9FC22F4
(1589343558.108731) vcan11 525#D938232BD1F5E40B
(1589343558.308903) vcan11 4E3#85054235DD7C4908
(1589343558.509075) vcan11 403#E1
(1589343558.709300) vcan11 72A#B2A9900382D1B86B
(1589343558.909471) vcan11 78E#8E3A3A13C4C54678
(1589343559.109645) vcan11 01F#F3AA6D668517556B
(1589343559.309827) vcan11 4C3#B00B0D54B653F659
(1589343559.510051) vcan11 7B4#AA9B045CD9841D41
(1589343559.710185) vcan11 195#AA7A024D
(1589343559.910414) vcan11 190#56E3390893F56122
(1589343560.110610) vcan11 210#508F836A3A7150
(1589343560.310852) vcan11 0D2#BD4209
(1589343560.511100) vcan11 54D#25F669436C7DD47D
(1589343560.711315) vcan11 623#F1942969E6223878
(1589343560.911514) vcan11 1A7#9C76
(1589343561.111710) vcan11 63D#34DE095ED3EFC5
(1589343561.311939) vcan11 6CB#4B56B64D5BF8F372
(1589343561.512173) vcan11 10D#EE
(1589343561.712341) vcan11 0D9#58AC8D11AB91611D
(1589343561.912533) vcan11 641#0BC284688E
(1589343562.112710) vcan11 460#
(1589343562.312837) vcan11 148#69D56A40EFCABC09
(1589343562.512997) vcan11 68E#4A24A926CB
(1589343562.713146) vcan11 64C#9E6C4B6E17452776
(1589343562.913285) vcan11 35C#723D1B696934105D
(1589343563.113391) vcan11 48B#
(1589343563.313883) vcan11 09F#0FE79106E05E386C
(1589343563.514129) vcan11 2F4#6FA2483454774C70
(1589343563.714573) vcan11 14B#D7297F3894BACB70
(1589343563.914814) vcan11 155#
(1589343564.115077) vcan11 345#AF2C063692A94F4C
(1589343564.315240) vcan11 44C#A9EE7642A907A455
(1589343564.515485) vcan11 437#123CB432C3584572
(1589343564.715982) vcan11 77C#27AE755B1B004E28
(1589343564.916246) vcan11 778#FC5E86146CD24E
(1589343565.116446) vcan11 652#C0499B189D9F236C
(1589343565.316863) vcan11 4D4#315AEF5C2A1E38
(1589343565.517158) vcan11 2D7#0DCEB8011D
(1589343565.717430) vcan11 183#AF67D721CF358E1E
(1589343565.917688) vcan11 40A#783D327441F0633C
(1589343566.117968) vcan11 274#0449A92EF1D9E339
(1589343566.318203) vcan11 524#0CDA31629DECC477
(1589343566.518391) vcan11 463#09BF1320B5CA443D
(1589343566.718627) vcan11 273#526A6829489F8302
(1589343566.918897) vcan11 461#72BDBB6E
(1589343567.119139) vcan11 439#56AD5529BC2D7956
(1589343567.319312) vcan11 63C#8B63077546
(1589343567.519569) vcan11 35D#870AA840
(1589343567.719735) vcan11 28F#C3C73F79B33F085D
(1589343567.919885) vcan11 2B8#502CCD541BD79665
(1589343568.120147) vcan11 2D8#D0A1DB224B15B111
(1589343568.320377) vcan11 424#93B4
(1589343568.520582) vcan11 0A6#BE5F270BDF
(1589343568.720775) vcan11 585#9BA2E406
(1589343568.921028) vcan11 219#079EDC1F778D25
(1589343569.121280) vcan11 72B#497B816EBAC14575
(1589343569.321424) vcan11 41A#6D014E52D2464649
(1589343569.521597) vcan11 4DB#ED1DDD2EB3BF5C15
(1589343569.721847) vcan11 118#FFD40D273C0D8C49
(1589343569.922278) vcan11 3E0#C17D
(1589343570.122480) vcan11 398#
(1589343570.322670) vcan11 294#DE
(1589343570.522897) vcan11 228#259A596F53
(1589343570.723184) vcan11 373#0D23407E8EBF671D
(1589343570.923438) vcan11 07A#6006AE66553DCF08
(1589343571.123661) vcan11 239#09FD2B1E516BA513
(1589343571.323828) vcan11 40B#8D78315DEBAF4005
(1589343571.524063) vcan11 39A#724CD9753257AF3E
(1589343571.724332) vcan11 3CE#4F50477063BEAD2A
(1589343571.924507) vcan11 1D9#11CBE16A02CC9A62
(1589343572.124745) vcan11 012#552D956B86AB
(1589343572.324976) vcan11 2A4#146B7E
(1589343572.525183) vcan11 4DE#73108206
(1589343572.725409) vcan11 5C2#6832B245CE79FB78
(1589343572.925600) vcan11 784#B9293C7E1F
(1589343573.125794) vcan11 143#5192132912751E6B
(1589343573.326046) vcan11 403#75
(1589343573.526316) vcan11 7CE#DFB1532CE197
(1589343573.726513) vcan11 3BC#67436E79
(1589343573.926701) vcan11 797#7EB1B21075A4213C
(1589343574.126891) vcan11 7EF#8C
(1589343574.327132) vcan11 76E#802FCC15
(1589343574.527368) vcan11 0E9#11EA2E102DEABE57
(1589343574.727607) vcan11 765#3F5FDD
(1589343574.927839) vcan11 704#4589C95C
(1589343575.128110) vcan11 13A#B3A6C72A
(1589343575.328322) vcan11 259#56D34047F049C422
(1589343575.528522) vcan11 095#66EEE55E
(1589343575.728755) vcan11 6C5#376E
(1589343575.928918) vcan11 7E7#26C5D550D040B9
(1589343576.129070) vcan11 6F0#FD2A782F55C6FE
(1589343576.329279) vcan11 39A#BE690F209E8AE46C
(1589343576.529442) vcan11 4F0#719954
(1589343576.729667) vcan11 628#20A39758
(1589343576.929892) vcan11 23F#7192C049D4C2
(1589343577.130096) vcan11 34A#597BB0561042F4
(1589343577.330340) vcan11 2CA#
(1589343577.530605) vcan11 747#8113694E387E7627
(1589343577.730849) vcan11 4A1#8D4475343BF8205E
(1589343577.931133) vcan11 0BB#DA82054BACE5353B
(1589343578.131361) vcan11 14F#D6938C5F77CF5357
(1589343578.331596) vcan11 46F#F817507EAE86C8
(1589343578.532073) vcan11 56D#83493D20B8A8C84F
(1589343578.732291) vcan11 341#C8EABC360B067266
(1589343578.932531) vcan11 66D#BCD8215DB435404B
(1589343579.132746) vcan11 075#ECB3B672162D6B6F
(1589343579.332965) vcan11 2BC#51258C4D78F3A219
(1589343579.533152) vcan11 6C5#24D9D85414480E4D
(1589343579.733423) vcan11 476#8B176224E620621C
(1589343579.933638) vcan11 3F1#94A72A
(1589343580.133891) vcan11 1ED#17FA4E142E057A
(1589343580.334145) vcan11 5F4#390BEC4161640064
(1589343580.534426) vcan11 7EA#159A402F5F
(1589343580.734662) vcan11 032#75B5
(1589343580.934916) vcan11 67C#67EEA70D41EDD3
(1589343581.135105) vcan11 2F2#5635E2116947CE0E
(1589343581.335227) vcan11 485#4F
(1589343581.535423) vcan11 465#D629F6
(1589343581.735655) vcan11 0FB#805B331FEFB6184F
(1589343581.935905) vcan11 0CC#501B1933B630193B
(1589343582.136369) vcan11 2AE#16B9727AE0
(1589343582.336562) vcan11 367#CF15CB3EE349744D
(1589343582.536751) vcan11 152#2537481245CC
(1589343582.736979) vcan11 3C1#AE1339494700DA45
(1589343582.937502) vcan11 15C#BED84949C1356533
(1589343583.137788) vcan11 3E0#138C1E77
(1589343583.338054) vcan11 681#CA43A0
(1589343583.538313) vcan11 64C#0360EF4FFA989E77
(1589343583.738528) vcan11 480#DBB36442E7176440
(1589343583.938799) vcan11 7A5#CB61D80DF7D02119
(1589343584.139031) vcan11 5E1#
(1589343584.339203) vcan11 56B#E9997042C7BEB91E
(1589343584.539458) vcan11 4E7#89F41E52C8B8F3
(1589343584.739706) vcan11 53B#A3457B2CBC9B7F0A
(1589343584.939975) vcan11 030#09CB551F7CB60057
(1589343585.140251) vcan11 088#774F9F4E08FDE768
(1589343585.340471) vcan11 426#F014
(1589343585.541072) vcan11 4FC#C39C6246DD9AD65F
(1589343585.741682) vcan11 7AB#80346D5C1615901B
(1589343585.941924) vcan11 2EA#DDD3493AD117E447
(1589343586.142131) vcan11 111#99D0D71C4CB6
(1589343586.342688) vcan11 103#0952125233B13535
(1589343586.542884) vcan11 7AB#AF67
(1589343586.743160) vcan11 01F#3C852B32468C
(1589343586.943394) vcan11 278#1158954775870D7E
(1589343587.143632) vcan11 0E7#5222E45D
(1589343587.343805) vcan11 6D4#A835
(1589343587.543915) vcan11 53C#8F3180264D
(1589343587.744097) vcan11 1EC#991C5A4BEF1ACA21
(1589343587.944239) vcan11 066#22CC
(1589343588.144388) vcan11 3B5#44
(1589343588.344568) vcan11 2F8#
(1589343588.544815) vcan11 7AC#E52CF32793709C12
(1589343588.745111) vcan11 500#25917D7CD4DB4A07
(1589343588.945280) vcan11 60A#92F5E66546CB5719
(1589343589.145409) vcan11 053#9331
(1589343589.345551) vcan11 14B#2EBD972FB1416A5C
(1589343589.545658) vcan11 4CF#
(1589343589.745938) vcan11 521#591C3C0419A8
(1589343589.946117) vcan11 787#8A4DBF
(1589343590.146505) vcan11 49F#C7CF062FA0E1E13E
(1589343590.346711) vcan11 1A7#74BD2C46B26FB23F
(1589343590.546939) vcan11 7BA#F83A0A590DF81C
(1589343590.747166) vcan11 229#4C9AEA7C74033A08
(1589343590.947398) vcan11 2B9#2545A46488778864
(1589343591.147652) vcan11 0CA#0DC04279EB9DE7
(1589343591.347855) vcan11 0ED#0546C1447478
(1589343591.548106) vcan11 0D9#A8D7DD1A798D0F6B
(1589343591.748357) vcan11 5FE#196FF129A6D7BC0F
(1589343591.948477) vcan11 05B#58476F4F1530DC22
(1589343592.148602) vcan11 794#
(1589343592.348737) vcan11 6DC#31BDE65C95A9457D
(1589343592.548917) vcan11 1E8#1E21CE61B2FA
(1589343592.749098) vcan11 13D#9E98670B2BBABC0D
(1589343592.949260) vcan11 591#9F3230
(1589343593.149476) vcan11 232#E3A3304F3080DC
(1589343593.349960) vcan11 1B6#D657990612BA5B66
(1589343593.550214) vcan11 78A#27EA37091E1F7205
(1589343593.750430) vcan11 17F#DCD81E5A5B10251D
(1589343593.950586) vcan11 4B8#F1B96A1AA1EE7A65
(1589343594.150748) vcan11 064#53E9FA53A1D94324
(1589343594.350926) vcan11 43A#CC
(1589343594.551151) vcan11 094#3590FA13C6D23416
(1589343594.751353) vcan11 0B3#F752110D6A823156
(1589343594.951489) vcan11 715#7C3C8D3C9F868D45
(1589343595.151708) vcan11 1FC#BEA5FF
(1589343595.351989) vcan11 0ED#D67B5A05A60D0B0B
(1589343595.552236) vcan11 4A7#47FC85700BADB4
(1589343595.752456) vcan11 0D6#AD86F87810CD4773
(1589343595.952646) vcan11 78C#DB46212320C86E53
(1589343596.153141) vcan11 0E5#E7
(1589343596.353677) vcan11 32A#03349A243F529476
(1589343596.553954) vcan11 0AB#DFD8213CA7E21274
(1589343596.754409) vcan11 722#224E485C10D0E207
(1589343596.954777) vcan11 537#B6DDED12DE116408
(1589343597.155085) vcan11 7C0#EABE185D9710661D
(1589343597.355364) vcan11 797#A7DDAD102327D8
(1589343597.555539) vcan11 010#44EF46
(1589343597.755711) vcan11 394#8FF29C38BE063205
(1589343597.956177) vcan11 009#FD58
(1589343598.156680) vcan11 711#5CF3111E332E4B65
(1589343598.356889) vcan11 079#43FE2D6DB0AD496B
(1589343598.557107) vcan11 377#8FBFAD73380B655D
(1589343598.757383) vcan11 5F6#CF1BCB7A8E75844B
(1589343598.957629) vcan11 410#B19C5C372024
(1589343599.157884) vcan11 5F9#166516128D
(1589343599.358156) vcan11 620#4B20652F29
(1589343599.558436) vcan11 637#DE9E2C6948154966
(1589343599.758680) vcan11 325#7C43944B9F5B1D22
(1589343599.958905) vcan11 3B8#4F09670D30DF955D
(1589343600.159116) vcan11 5B9#68EAFA3AAFD36D3C
(1589343600.359307) vcan11 757#3D49F207670BB3
(1589343600.559556) vcan11 7AD#882F9520A71D8700
(1589343600.759739) vcan11 1E4#3437BA2A05888055
(1589343600.959983) vcan11 444#
(1589343601.160223) vcan11 0C9#C47F920BEE7B5E68
(1589343601.360471) vcan11 746#
(1589343601.560720) vcan11 4FF#2FFA4764B822C748
(1589343601.760974) vcan11 1BB#68F6340513F1D2
(1589343601.961180) vcan11 2CE#7AFC85637B
(1589343602.161381) vcan11 594#2208
(1589343602.361595) vcan11 0A1#7E1FE957E5AC25
(1589343602.561790) vcan11 6D7#60176F59A067F320
(1589343602.762005) vcan11 2B9#8EE35109
(1589343602.962222) vcan11 264#FE4C3D76645F114C
(1589343603.162388) vcan11 3F9#1C82D814B445A844
(1589343603.362613) vcan11 3C4#C7367B2F
(1589343603.562859) vcan11 02A#0E01
(1589343603.763036) vcan11 744#
(1589343603.963265) vcan11 087#CACC08025E
(1589343604.163446) vcan11 262#FE460D7A1BB50525
(1589343604.363689) vcan11 34F#1AE79014B4D5A17C
(1589343604.564139) vcan11 5A9#1835B348A281DD42
(1589343604.764376) vcan11 346#56C78507
(1589343604.964629) vcan11 7B9#9DBDEC2DE3E7CD1E
(1589343605.164866) vcan11 160#A1C57812A4901E61
(1589343605.364992) vcan11 7DC#8AB0012F63105F4C
(1589343605.565222) vcan11 78E#C2EF7825
(1589343605.765421) vcan11 17F#
(1589343605.965935) vcan11 14D#83B29D49F646
(1589343606.166127) vcan11 23F#98C8EF7C85E5D43A
(1589343606.366328) vcan11 6CF#908CF01988CE7567
(1589343606.566463) vcan11 60D#6BB643066DBF7805
(1589343606.766584) vcan11 0D9#11509766B5D0D069
(1589343606.966778) vcan11 6E6#19E12F367486D177
(1589343607.167043) vcan11 5F0#6520EE086FDF2553
(1589343607.367189) vcan11 79B#
(1589343607.567369) vcan11 596#DF
(1589343607.767852) vcan11 65C#5BF5191A2CF5EC6B
(1589343607.968271) vcan11 067#B4C3625374960215
(1589343608.168516) vcan11 419#
(1589343608.368969) vcan11 62D#A8A5
(1589343608.569569) vcan11 68E#87
(1589343608.769860) vcan11 79C#ED037530385FA34D
(1589343608.970091) vcan11 35D#21C8B76BF3683F5D
(1589343609.170325) vcan11 6ED#
(1589343609.370450) vcan11 078#767A5322
(1589343609.570568) vcan11 00F#538F830729BC9006
(1589343609.770720) vcan11 04A#1C915B5D
(1589343609.970869) vcan11 327#8A5B6B55
(1589343610.171338) vcan11 586#3356
(1589343610.371575) vcan11 2FE#
(1589343610.571776) vcan11 24C#4F0F0F263A496E52
(1589343610.772071) vcan11 47C#84CED408F4A4657D
(1589343610.972300) vcan11 63C#D49DE66F4BE6DA43
(1589343611.172787) vcan11 724#74A26B4A6F3F3B
(1589343611.372993) vcan11 25C#
(1589343611.573476) vcan11 255#38
(1589343611.773657) vcan11 083#FD3CB84181BBA25D
(1589343611.973821) vcan11 78B#DD617226D899DD6C
(1589343612.174082) vcan11 5D3#12E34B3F4FA2957B
(1589343612.374318) vcan11 144#4447FB7880EF
(1589343612.574545) vcan11 290#CBD5212CB4812714
(1589343612.774711) vcan11 23F#
(1589343612.974813) vcan11 3D0#1EC22F3625161364
(1589343613.174919) vcan11 07B#003E943EFED0
(1589343613.375037) vcan11 6C1#7F8CB5034D36710E
(1589343613.575191) vcan11 456#25D04E7B291A040E
(1589343613.775372) vcan11 788#79BC9909CC58BE
(1589343613.975552) vcan11 4CD#4C48050E5D5F0476
(1589343614.175802) vcan11 0D5#11E12B0A14FBC24B
(1589343614.376073) vcan11 658#B01F784528
(1589343614.576281) vcan11 13F#4E581C33BA49B002
(1589343614.776536) vcan11 325#B81AC328E629BB61
(1589343614.976746) vcan11 14C#33602C70A23DDC
(1589343615.176998) vcan11 594#CC57E0761CF5494D
(1589343615.377179) vcan11 38F#E94D08735C
(1589343615.577449) vcan11 002#B9A7D51ED7
(1589343615.777647) vcan11 44D#EBFB483AA54AE96B
(1589343615.977879) vcan11 300#CE8CF23A3F7C7C7C
(1589343616.178120) vcan11 56A#F9C52C7F8F707823
(1589343616.378356) vcan11 36A#75
(1589343616.578569) vcan11 7E8#59CA983A7C1D092B
(1589343616.778735) vcan11 301#9912537891
(1589343616.978877) vcan11 66A#ED56
(1589343617.179046) vcan11 6B7#434F882305AB9D
(1589343617.379192) vcan11 772#AAF5861372B2292F
(1589343617.579336) vcan11 6CA#B12EA62B3464FB58
(1589343617.779562) vcan11 794#C3D4737CFFE2471C
(1589343617.979712) vcan11 55B#B66F046E435D2B27
(1589343618.179972) vcan11 1E2#C07A3452E394E257
(1589343618.380153) vcan11 435#74A3D35E9F92090C
(1589343618.580392) vcan11 5DB#0CE1
(1589343618.780562) vcan11 109#978FE9497B80C754
(1589343618.980762) vcan11 37E#ED32
(1589343619.181040) vcan11 7BA#7D46F3784F6F7268
(1589343619.381241) vcan11 648#4E
(1589343619.581446) vcan11 27A#E6885854
(1589343619.781587) vcan11 413#3F89F8454858
(1589343619.981805) vcan11 0FF#E8EA7B01
(1589343620.182053) vcan11 716#6D634349
(1589343620.382334) vcan11 443#9AA05765
(1589343620.582642) vcan11 046#0B5A7909018087
(1589343620.782873) vcan11 525#50EFF9046D8B4A73
(1589343620.983369) vcan11 3C9#10B777204346E26E
(1589343621.183605) vcan11 3A2#9F3AF85CB5FF
(1589343621.384122) vcan11 39D#FE57410D9CD4710C
(1589343621.584320) vcan11 093#77536933A917
(1589343621.784571) vcan11 6DA#C837AF0B
(1589343621.984717) vcan11 1E8#DF82
(1589343622.184822) vcan11 3E9#30A2FE1C0EE12F73
(1589343622.385035) vcan11 573#
(1589343622.585269) vcan11 31E#807F7E54C0D61F28
(1589343622.785477) vcan11 381#75D6EE3F1EA71F17
(1589343622.985640) vcan11 5FE#BB7B91
(1589343623.185807) vcan11 159#3A86
(1589343623.386351) vcan11 616#518B
(1589343623.586726) vcan11 664#
(1589343623.786913) vcan11 31B#5B2379618E689A60
(1589343623.987103) vcan11 5DD#CAA13646FB58
(1589343624.187276) vcan11 361#BB2FBC76E316A84A
(1589343624.387440) vcan11 36A#01
(1589343624.587944) vcan11 4A4#FAC7B73CFEA5C85F
(1589343624.788478) vcan11 0EE#3126FB0C
(1589343624.988681) vcan11 437#03BF
(1589343625.188973) vcan11 7B3#
(1589343625.389218) vcan11 58E#5C13710D
(1589343625.589462) vcan11 01B#67E4F7697C4B
(1589343625.789762) vcan11 671#5F62
(1589343625.990160) vcan11 253#43
(1589343626.190358) vcan11 21D#F6F4027B0C63A07F
(1589343626.390868) vcan11 172#10F29B2FA92DBD
(1589343626.591094) vcan11 4AA#44D0A4
(1589343626.791559) vcan11 244#2B376821D2C7F932
(1589343626.991831) vcan11 572#3D53554E8D551D
(1589343627.192077) vcan11 7AD#09A1A055
(1589343627.392273) vcan11 3C7#F987662B1A666030
(1589343627.592480) vcan11 3CA#12B59A4BE77D0B53
(1589343627.792736) vcan11 67A#F3E0AB52EC87250A
(1589343627.992929) vcan11 530#95B5E26C
(1589343628.193185) vcan11 417#371EBA7D5B46EE7F
(1589343628.393419) vcan11 307#2D0E
(1589343628.593640) vcan11 7E9#064EFA66969F7C50
(1589343628.793925) vcan11 10F#
(1589343628.994125) vcan11 279#F14AEC024316267E
(1589343629.194305) vcan11 0EB#2A9431
(1589343629.394535) vcan11 20C#527FBF1B3C6FC063
(1589343629.594790) vcan11 022#1601E96C39CC856B
(1589343629.795023) vcan11 2C2#9512746BC9F58624
(1589343629.995264) vcan11 4AF#43EE
(1589343630.195467) vcan11 22D#2EB43D283D1B2459
(1589343630.395702) vcan11 359#1300B0
(1589343630.595955) vcan11 792#15348617
(1589343630.796190) vcan11 308#
(1589343630.996437) vcan11 55E#506408768085
(1589343631.196683) vcan11 41E#B951401EE01E
(1589343631.396867) vcan11 4B3#A914490762F95957
(1589343631.597058) vcan11 511#FA0D1B2F3E07AA47
(1589343631.797311) vcan11 736#7B22CE208F6A0408
(1589343631.997689) vcan11 40C#628864219E134A17
(1589343632.197945) vcan11 593#1BCCE6609BB83D
(1589343632.398142) vcan11 4B7#AFAD850A15C2372E
(1589343632.598323) vcan11 335#9547F260530FAC32
(1589343632.798566) vcan11 765#332E6E1518FC1331
(1589343632.998837) vcan11 59D#7AF56D08AE82F730
(1589343633.199037) vcan11 5C9#ED89A178
(1589343633.399230) vcan11 59D#8EEF7310A9B1D24F
(1589343633.599445) vcan11 6F7#
(1589343633.799680) vcan11 468#26F5
(1589343633.999935) vcan11 561#357B9D3A96B8
(1589343634.200120) vcan11 4D5#E9C7E0693B2CD947
(1589343634.400371) vcan11 419#5328ED78B759A923
(1589343634.600602) vcan11 0F9#65DCA054C27E6A67
(1589343634.800844) vcan11 142#C103
(1589343635.001069) vcan11 2BB#88989817B2E19F4C
(1589343635.201329) vcan11 340#3D1EA82DA89FE91C
(1589343635.401512) vcan11 732#C7584F29
(1589343635.601752) vcan11 63A#2AB50E020F6B134F
(1589343635.802275) vcan11 6C7#4A97EC
(1589343636.002519) vcan11 330#974CE83D29AC4407
(1589343636.202696) vcan11 56C#EB2AAF6EAEFE184A
(1589343636.402890) vcan11 74F#8EE5DE110AA27D46
(1589343636.603086) vcan11 1FB#BD831D133B8D
(1589343636.803556) vcan11 3E6#E32CE72D18CBE56E
(1589343637.003767) vcan11 55E#ABC7BF39986B6D32
(1589343637.204140) vcan11 1A7#A8D680016E
(1589343637.404610) vcan11 1E9#4FE3
(1589343637.604874) vcan11 590#4219411AFC0A
(1589343637.805097) vcan11 0E3#AB09950333E81B05
(1589343638.005329) vcan11 2D9#3D8A994BD4945046
(1589343638.205800) vcan11 54F#10224E5735491867
(1589343638.406037) vcan11 7F5#4D14FE
(1589343638.606456) vcan11 49E#ECD09D19462E8F17
(1589343638.806700) vcan11 0CE#B41E2F52
(1589343639.006969) vcan11 586#D0BF46
(1589343639.207210) vcan11 1EA#134E
(1589343639.407481) vcan11 53F#007341641890F110
(1589343639.607648) vcan11 6F7#ED24425747B4436D
(1589343639.807915) vcan11 338#7CFD5B542DBB0E2E
(1589343640.008428) vcan11 5F0#81203F158F6A3110
(1589343640.208651) vcan11 5C3#D598C0279146A405
(1589343640.408814) vcan11 101#4999EE7887AE877D
(1589343640.609012) vcan11 18D#9EF15A5977EBD25A
(1589343640.809223) vcan11 22C#4476
(1589343641.009522) vcan11 770#84DF265A68
(1589343641.209730) vcan11 683#AF
(1589343641.409898) vcan11 36E#E9ACB50A5EE1BE13
(1589343641.610091) vcan11 1F5#ED4BF023B88FF85B
(1589343641.810331) vcan11 6D7#4AD6
(1589343642.010547) vcan11 44C#5F0655
(1589343642.210711) vcan11 0AC#50417141D8FA7D79
(1589343642.410903) vcan11 7B0#444AB342
(1589343642.611098) vcan11 0D9#88ADCF1B5C87B867
(1589343642.811330) vcan11 639#18795F44A7793C
(1589343643.011598) vcan11 063#05
(1589343643.211775) vcan11 36B#11025A
(1589343643.411978) vcan11 3B5#1A0AA95601283D77
(1589343643.612431) vcan11 7EE#DA7DDB5D9A10434A
(1589343643.812656) vcan11 077#730BC1432740083B
(1589343644.012878) vcan11 6BF#480FF12098175A
(1589343644.213297) vcan11 77F#
(1589343644.413554) vcan11 508#5F27CE1F6BCD3B32
(1589343644.613724) vcan11 60E#C33F9D0A
(1589343644.813933) vcan11 157#BBE36C5C
(1589343645.014377) vcan11 22F#0EDD8E701D
(1589343645.214866) vcan11 64E#B872B30FC606C27C
(1589343645.415321) vcan11 213#ED46CA37D2906D08
(1589343645.615725) vcan11 3E2#6BA8C73C61
(1589343645.815915) vcan11 306#
(1589343646.016374) vcan11 76D#79DD72437B9DD368
(1589343646.216533) vcan11 2DC#F4CE640734D41538
(1589343646.416799) vcan11 711#418967314079F561
(1589343646.617033) vcan11 084#5EDB6527D29EFB36
(1589343646.817298) vcan11 138#98A5BD334CDB
(1589343647.017505) vcan11 441#1E6C856623A0
(1589343647.217753) vcan11 2BB#84F3AD61C155BF59
(1589343647.418009) vcan11 3E9#CF65F66A56BB7335
(1589343647.618267) vcan11 515#D158471EF1C76E4F
(1589343647.818825) vcan11 085#259C840796
(1589343648.019085) vcan11 274#D638766BF87A
(1589343648.219351) vcan11 3B6#CB196157
(1589343648.419583) vcan11 24A#3A285B
(1589343648.619795) vcan11 3E9#AECEF938A5EEE93A
(1589343648.819953) vcan11 0E2#6644
(1589343649.020158) vcan11 6CF#22C0C864E4D3
(1589343649.220337) vcan11 57E#D69B9B19
(1589343649.420752) vcan11 0B9#990D03342E1B3A32
(1589343649.620934) vcan11 562#
(1589343649.821420) vcan11 2A4#06
(1589343650.021669) vcan11 755#7A
(1589343650.221846) vcan11 29A#E309B0667C9B9B6C
(1589343650.422072) vcan11 45B#48A0F01B2B338E0F
(1589343650.622481) vcan11 080#0F07BB59FEE50129
(1589343650.822703) vcan11 15F#0234845318
(1589343651.022968) vcan11 2E1#46D5BF5E4338836E
(1589343651.223223) vcan11 00B#5B217223B0E25559
(1589343651.423465) vcan11 35E#9F
(1589343651.623679) vcan11 5A2#F2A5453C3CA89F06
(1589343651.824047) vcan11 542#B9433B739E
(1589343652.024391) vcan11 61F#C9
(1589343652.224625) vcan11 46C#9EDC4942CBBDAE13
(1589343652.424866) vcan11 6BE#
(1589343652.625334) vcan11 23B#E2B13F3447DA5544
(1589343652.825826) vcan11 097#F7BCAB1DF6D3B32B
(1589343653.026056) vcan11 29E#A95E333C41E0
(1589343653.226290) vcan11 7AF#7D88274FF22CF149
(1589343653.426423) vcan11 471#90EE961E90B2
(1589343653.626620) vcan11 038#30A90553A4F47361
(1589343653.826845) vcan11 731#70B22275EF7DFF71
(1589343654.027030) vcan11 66E#8EF7BB37
(1589343654.227361) vcan11 77E#
(1589343654.427608) vcan11 4AD#0C0453504CA703
(1589343654.627862) vcan11 47D#8D878B072D
(1589343654.828045) vcan11 751#1FF16C01C21B6E20
(1589343655.028272) vcan11 441#52CE2B5A798CA46A
(1589343655.228696) vcan11 308#1D81
(1589343655.429125) vcan11 550#29208855BE939E6D
(1589343655.629424) vcan11 5E1#687C113660D5DD
(1589343655.829675) vcan11 128#76057D6FD53DED3C
(1589343656.029906) vcan11 740#21E5
(1589343656.230160) vcan11 437#EA5F8B4288D35551
(1589343656.430420) vcan11 4B9#4AEFC371FA584573
(1589343656.630697) vcan11 0B8#73E5E95DC0F3CA06
(1589343656.830907) vcan11 51F#
(1589343657.031118) vcan11 21E#2EC640
(1589343657.231615) vcan11 5DA#5FCDAD2C028F
(1589343657.432107) vcan11 1EF#D8CC4C032F
(1589343657.632601) vcan11 457#ECDC8A1A8F485128
(1589343657.833134) vcan11 6A8#171CA779619BE9
(1589343658.033409) vcan11 5E0#5BF4
(1589343658.233935) vcan11 0FF#59B2D50B1EFE7B30
(1589343658.434443) vcan11 05E#8E301E
(1589343658.634710) vcan11 676#7CD2282551CC2403
(1589343658.834977) vcan11 153#535B844942BBDD16
(1589343659.035220) vcan11 2B1#71FC5826084FFC49
(1589343659.235480) vcan11 225#97974D72CDF8C84E
(1589343659.435737) vcan11 635#2E94B22B15A4083F
(1589343659.635903) vcan11 711#AE6213441088BA0E
(1589343659.836061) vcan11 257#2E86363FB5A21502
(1589343660.036160) vcan11 55B#327D6E45D25B177C
(1589343660.236372) vcan11 57A#23283C7FCDE66435
(1589343660.436615) vcan11 789#10A2424C3A62
(1589343660.636828) vcan11 3A2#43
(1589343660.837060) vcan11 7DF#947E6930148E7951
(1589343661.037517) vcan11 489#2A32
(1589343661.237688) vcan11 34B#AA43C838A2FDF701
(1589343661.437933) vcan11 1E0#57A00D043C07916A
(1589343661.638401) vcan11 096#0E63A866102E0764
(1589343661.838850) vcan11 537#DD
(1589343662.039091) vcan11 6A7#FBBEF01A49BA3644
(1589343662.239287) vcan11 56F#1040D7254ECDC90B
(1589343662.439429) vcan11 119#635B435D
(1589343662.639581) vcan11 166#3D71D172B16C5A0A
(1589343662.839776) vcan11 265#536A520C46CCD9
(1589343663.039964) vcan11 6C0#82D36A5156FFEB46
(1589343663.240088) vcan11 034#
(1589343663.440313) vcan11 1C1#2DF2707E
(1589343663.640542) vcan11 131#B28AD310A04E5802
(1589343663.840726) vcan11 167#EF1B
(1589343664.040954) vcan11 167#2290
(1589343664.241226) vcan11 4DF#7FC7A2494427861B
(1589343664.441507) vcan11 647#8AF3
(1589343664.641734) vcan11 47D#5E348770B2643140
(1589343664.841993) vcan11 59C#1EFA204E
(1589343665.042180) vcan11 408#C68F72763A9DE709
(1589343665.242385) vcan11 573#DAEB3F0CDABEB10E
(1589343665.442530) vcan11 53A#5A99852DA16EDC4A
(1589343665.642652) vcan11 71B#6FC9240AFA83F25E
(1589343665.842857) vcan11 2DC#3FAB787A23E18875
(1589343666.043097) vcan11 2C0#2B16241F3EFF1110
(1589343666.243287) vcan11 5D6#F06343507263815C
(1589343666.443412) vcan11 44D#D02257065650FF0A
(1589343666.643536) vcan11 259#90EDE614CCE7
(1589343666.843656) vcan11 50E#A7A69B5F48B20042
(1589343667.043851) vcan11 134#EA
(1589343667.244091) vcan11 17E#4AE442205B94C411
(1589343667.444259) vcan11 347#7E754D07073E8614
(1589343667.644410) vcan11 652#453D982428943768
(1589343667.844619) vcan11 632#9BF7B84480
(1589343668.044801) vcan11 743#D6D2416C9C49367E
(1589343668.245233) vcan11 501#6931204F0F9A
(1589343668.445511) vcan11 1D0#
(1589343668.645715) vcan11 011#54
(1589343668.846235) vcan11 79A#EB15E06FE1D2921C
(1589343669.046449) vcan11 727#E9101931797DBB71
(1589343669.246665) vcan11 713#A211F35945EDBB53
(1589343669.446871) vcan11 764#C56FFE34A7EECC5D
(1589343669.647079) vcan11 3A8#4438035CA9F09531
(1589343669.847236) vcan11 301#B88A7F7DD29CB844
(1589343670.047347) vcan11 1BD#D6179122CE59BC15
(1589343670.247486) vcan11 451#5EDBD773EB9BFA57
(1589343670.447660) vcan11 2C8#CD6E8D74EF014D5B
(1589343670.647834) vcan11 4B3#697F084DC693
(1589343670.848025) vcan11 5E4#0B81404C48BDE445
(1589343671.048247) vcan11 248#F0
(1589343671.248462) vcan11 36C#99AEF960
(1589343671.448651) vcan11 5E1#40
(1589343671.648896) vcan11 060#6CE9731AB154
(1589343671.849087) vcan11 641#9DF00E680991116F
(1589343672.049329) vcan11 614#F9925E4AC732E94C
(1589343672.249589) vcan11 720#8DC6
(1589343672.450136) vcan11 36D#4D6A7F43B53D0A04
(1589343672.650321) vcan11 06A#A5FB6D33D66B6C35
(1589343672.850559) vcan11 271#44A2547A5248BE11
(1589343673.050726) vcan11 38F#F0D77516
(1589343673.250913) vcan11 09B#A148D86CDC3E131E
(1589343673.451152) vcan11 627#E5CF240D3C3C3931
(1589343673.651344) vcan11 0A8#036F227EC877C633
(1589343673.851558) vcan11 540#CC
(1589343674.051744) vcan11 52A#6256573194B52B68
(1589343674.251974) vcan11 556#6A21981DC79FF7
(1589343674.452233) vcan11 445#19E8B554D4DF0D6C
(1589343674.652429) vcan11 133#C4D3D148CE99094C
(1589343674.852700) vcan11 166#AAD81C6A8D
(1589343675.052950) vcan11 5A3#
(1589343675.253522) vcan11 36E#1366DB6FAF80AF3D
(1589343675.453709) vcan11 05E#5C99FC6A88657523
(1589343675.653986) vcan11 1F9#1C1BA10B4FBF2E72
(1589343675.854227) vcan11 1C6#175F26350C3E
(1589343676.054475) vcan11 035#
(1589343676.254710) vcan11 73A#37D31129
(1589343676.454964) vcan11 609#2D90
(1589343676.655127) vcan11 472#F751762BE05F35
(1589343676.855353) vcan11 6C4#8FE0E416226FCA51
(1589343677.055576) vcan11 2EA#AAD43F75E35CAB52
(1589343677.255814) vcan11 1AB#321CDA4471AB
(1589343677.456032) vcan11 44C#7DE99419822C406B
(1589343677.656156) vcan11 27A#EB654848B4C9E478
(1589343677.856303) vcan11 102#5452
(1589343678.056415) vcan11 504#B8
(1589343678.256580) vcan11 678#
(1589343678.456806) vcan11 4BA#5EACB544A4B7
(1589343678.657035) vcan11 3D2#871442597D5D2A1F
(1589343678.857276) vcan11 0CE#EF08793E1B9DF064
(1589343679.057852) vcan11 403#9DC930507D6EF91B
(1589343679.258061) vcan11 1CA#3138DE14CDF20507
(1589343679.458231) vcan11 0AA#D9F9E41AAF
(1589343679.658505) vcan11 507#25
(1589343679.858876) vcan11 141#BC608E77FC95E416
(1589343680.059138) vcan11 263#A04D7B1D358E8C05
(1589343680.259363) vcan11 623#B3EBB624F1FE0F31
(1589343680.459560) vcan11 2E2#0C9C
(1589343680.659825) vcan11 70E#63ADEF48D9E03413
(1589343680.860030) vcan11 531#A6D33A1A
(1589343681.060264) vcan11 01A#8B4BDA1621DDF911
(1589343681.260456) vcan11 210#
(1589343681.460687) vcan11 32D#4EE90537908D4B3E
(1589343681.660879) vcan11 677#C51BD8439AFCA840
(1589343681.861248) vcan11 116#8BFBB871F82B1860
(1589343682.061484) vcan11 41A#DE6A0E0D29E3FC06
(1589343682.261728) vcan11 541#02
(1589343682.461997) vcan11 5D5#4F901375EF6D7A30
(1589343682.662204) vcan11 527#104B74423797D13C
(1589343682.862422) vcan11 68A#89
(1589343683.062601) vcan11 50D#472F1D38841BAC
(1589343683.263031) vcan11 2C6#1E185572DCA3B833
(1589343683.463246) vcan11 285#D5CFD013A04E4330
(1589343683.663453) vcan11 342#C93140
(1589343683.863619) vcan11 2F4#F63A4846C950A92A
(1589343684.064100) vcan11 573#B9BE235B9A
(1589343684.264315) vcan11 71F#D1893C2CAA556707
(1589343684.464667) vcan11 57A#61F738018802E65D
(1589343684.664861) vcan11 032#0C1E920FF852A205
(1589343684.865085) vcan11 1B6#D5F65A393BC4CF19
(1589343685.065273) vcan11 1D5#DB12134A17F5BC51
(1589343685.265505) vcan11 15D#9A9D6F2B
(1589343685.465681) vcan11 26F#1A
(1589343685.665902) vcan11 3D6#7CBA0E
(1589343685.866120) vcan11 59D#A0A0C47B17C3F67E
(1589343686.066324) vcan11 0A9#9F
(1589343686.266583) vcan11 6AA#D453452060309F6B
(1589343686.466867) vcan11 1D7#9CF46E05AC634B54
(1589343686.667056) vcan11 153#C3580826B012D7
(1589343686.867305) vcan11 41C#0167BF798B869A23
(1589343687.067487) vcan11 6EE#6E4E3E7CC5724370
(1589343687.267730) vcan11 7EF#BBBDA0648CDD537C
(1589343687.467962) vcan11 538#A3A04A7BE1051336
(1589343687.668203) vcan11 65C#BD06B6
(1589343687.868474) vcan11 1EF#67
(1589343688.068745) vcan11 53A#72C737
(1589343688.268951) vcan11 17B#3DC93E0697
(1589343688.469102) vcan11 692#22B4B64881E5E741
(1589343688.669306) vcan11 459#
(1589343688.869447) vcan11 37B#D4
(1589343689.069566) vcan11 45C#955EED77B86A9454
(1589343689.269717) vcan11 0BB#BF1F
(1589343689.469995) vcan11 7E3#703E9E441D653A
(1589343689.670236) vcan11 72A#AA1B
(1589343689.870462) vcan11 617#3CEEC865A93CCE
(1589343690.070698) vcan11 525#2A22B6397E512E05
(1589343690.271147) vcan11 4EF#
(1589343690.471667) vcan11 071#1E09913ECD04DF79
(1589343690.671865) vcan11 213#866F73
(1589343690.872348) vcan11 505#781DEF4FE8
(1589343691.072535) vcan11 46C#05F2FA3C9773C50A
(1589343691.272706) vcan11 1CA#3C34724BE1877959
(1589343691.472910) vcan11 296#8BC44751BB075D2A
(1589343691.673089) vcan11 4D8#39598B2FC7
(1589343691.873275) vcan11 126#
(1589343692.073491) vcan11 69C#
(1589343692.273660) vcan11 303#7ED39B5D08581744
(1589343692.473955) vcan11 530#F0E4D77C9D89
(1589343692.674142) vcan11 4DF#34FDC221A9
(1589343692.874580) vcan11 4A4#
(1589343693.074843) vcan11 3E9#F5DE4A45C118
(1589343693.275093) vcan11 1CB#89825A51F1421A4F
(1589343693.475341) vcan11 72F#8934A748CB6D2255
(1589343693.675626) vcan11 00B#7AFE80740E4BAD74
(1589343693.875903) vcan11 0D9#16A3C43809869076
(1589343694.076101) vcan11 2EF#A60F8E0DCE0F
(1589343694.276323) vcan11 6FB#77BE3B649F43DF5B
(1589343694.476559) vcan11 64B#D91A
(1589343694.676748) vcan11 018#F6AA2139E4D1A805
(1589343694.877023) vcan11 1FC#D514C3542BC1D357
(1589343695.077264) vcan11 23A#F62EF62C458A745B
(1589343695.277445) vcan11 44C#53
(1589343695.477620) vcan11 769#2F8B004E58C23B73
(1589343695.677860) vcan11 06F#26D2FB346A
(1589343695.878086) vcan11 7B0#09A3D109FBE56527
(1589343696.078298) vcan11 5A0#2F78
(1589343696.278583) vcan11 7B0#9D477F2CAC
(1589343696.478806) vcan11 0A4#D8AA
(1589343696.678951) vcan11 5D1#23A52B2D1D1A2A78
(1589343696.879228) vcan11 73F#431F9A4FA906
(1589343697.079461) vcan11 2DF#01C9
(1589343697.279692) vcan11 547#B852A972F7EC0804
(1589343697.479904) vcan11 3C6#F2
(1589343697.680040) vcan11 3A3#1F27
(1589343697.880264) vcan11 647#00557527ECBE434F
(1589343698.080427) vcan11 32F#CAD9FA2000719635
(1589343698.280596) vcan11 1A6#1D8BC02DE6E04273
(1589343698.480916) vcan11 164#
(1589343698.681163) vcan11 4D2#
(1589343698.881330) vcan11 3B8#118727187E770D6E
(1589343699.081567) vcan11 00C#E5285F30
(1589343699.281794) vcan11 526#03476D3C
(1589343699.482042) vcan11 6C1#59D2EE
(1589343699.682532) vcan11 3DB#F0FAAE7B
(1589343699.882811) vcan11 312#6856702376248404
(1589343700.083006) vcan11 06E#BA102C564085BF
(1589343700.283218) vcan11 687#5A1FDE55403AC438
(1589343700.483462) vcan11 298#BEB1D126A44A167B
(1589343700.683644) vcan11 070#5426B3
(1589343700.883902) vcan11 2A8#03B9A87D69E9E61F
(1589343701.084168) vcan11 15B#5973FF6537A5D36E
(1589343701.284357) vcan11 781#B91A011F9362916B
(1589343701.484622) vcan11 456#09
(1589343701.684893) vcan11 718#05AAA773
(1589343701.885088) vcan11 011#DFD7022DA9AA5F28
(1589343702.085321) vcan11 7CB#4DF575233B702769
(1589343702.285561) vcan11 441#D115
(1589343702.485729) vcan11 0FA#5278A43B55
(1589343702.685995) vcan11 232#8C372068B391E663
(1589343702.886233) vcan11 1F4#46F4774F4B
(1589343703.086465) vcan11 366#0F7358407E72312A
(1589343703.286867) vcan11 313#1E10701E
(1589343703.487105) vcan11 674#CD45FB603F561135
(1589343703.687344) vcan11 19B#7BC6381EDDD54C4A
(1589343703.887614) vcan11 6BD#C6640A66B7DFE300
(1589343704.087822) vcan11 321#0C72307A53059125
(1589343704.288055) vcan11 0C4#06977709B922A546
(1589343704.488255) vcan11 3DE#0471155545BF0433
(1589343704.688405) vcan11 69C#C33136
(1589343704.888597) vcan11 128#D4
(1589343705.089071) vcan11 1DF#DB
(1589343705.289258) vcan11 5BC#5771AD30798C
(1589343705.489519) vcan11 0A3#306CD262C48BC718
(1589343705.689658) vcan11 337#1891583EFB7BB97B
(1589343705.889866) vcan11 7D6#B49E5E42B483C528
(1589343706.090107) vcan11 36B#F942CA5B07BA3C39
(1589343706.290368) vcan11 3CC#B6D38857F4F44F76
(1589343706.490581) vcan11 69E#90DC433D7DE0BF7B
(1589343706.690849) vcan11 32C#F87B2062E8B8A722
(1589343706.891057) vcan11 6C2#6245960465FF2278
(1589343707.091292) vcan11 36D#298B
(1589343707.291529) vcan11 7CF#A0
(1589343707.491684) vcan11 460#5A9B842C
(1589343707.691978) vcan11 10D#D2B10F
(1589343707.892195) vcan11 310#CD89AA5AAF09F675
(1589343708.092414) vcan11 613#2CEAB5713F915C5D
(1589343708.292608) vcan11 0C8#274A0400
(1589343708.492771) vcan11 374#EF9EE11CE1162A10
(1589343708.692953) vcan11 11C#868D1672EBD06E30
(1589343708.893200) vcan11 65A#91E82D34BA8A
(1589343709.093435) vcan11 17A#8582F54B87B23927
(1589343709.293624) vcan11 23E#6047940B4FB550
(1589343709.493909) vcan11 1E0#FEBE4620F3C7A67C
(1589343709.694154) vcan11 78A#3259035A53B8644F
(1589343709.894372) vcan11 74F#DD572374C362774C
(1589343710.094564) vcan11 2E3#A479A15CFF73A54A
(1589343710.294731) vcan11 0E6#EA44147B4067E03B
(1589343710.494900) vcan11 750#FBF10250CB98350E
(1589343710.695073) vcan11 166#
(1589343710.895262) vcan11 0D8#F4C846
(1589343711.095514) vcan11 3E0#AB2A
(1589343711.295680) vcan11 11C#BE53D4746B405D3B
(1589343711.495968) vcan11 736#2EA3D407195AEF6D
(1589343711.696185) vcan11 268#18CE94
(1589343711.896445) vcan11 3FD#8F2AAE
(1589343712.096670) vcan11 07E#1944D85FE5F1DF72
(1589343712.296908) vcan11 10A#8A05D66BE239A739
(1589343712.497112) vcan11 21E#9A9C4218FF858D7D
(1589343712.697578) vcan11 670#6A21FD228C
(1589343712.898049) vcan11 322#F8C7916359721738
(1589343713.098309) vcan11 0C3#72CC06262CC3
(1589343713.298512) vcan11 7F9#7A869333F7AB0A03
(1589343713.499026) vcan11 58E#4557AD540CEE2F75
(1589343713.699249) vcan11 593#F1DF0F689E5E9C4D
(1589343713.899688) vcan11 2C9#80984307E84C1820
(1589343714.099867) vcan11 3F9#E7D2A51D690AAD35
(1589343714.300342) vcan11 460#F6
(1589343714.500600) vcan11 179#DCB9EC733C8A3D59
(1589343714.700783) vcan11 514#684D03540E4DB67C
(1589343714.900977) vcan11 0D9#05F9C0
(1589343715.101268) vcan11 4EC#74BC03008052CB1C
(1589343715.301510) vcan11 3A8#1EB1676A71
(1589343715.501764) vcan11 1E1#5963D972DA35FC1E
(1589343715.701978) vcan11 6B9#
(1589343715.902180) vcan11 291#9DC211600A949629
(1589343716.102322) vcan11 428#471ED4023CF1D720
(1589343716.302573) vcan11 2C7#4A3E8E1DA1238166
(1589343716.502832) vcan11 792#08F254717FC4460E
(1589343716.703064) vcan11 799#FF16122B4173B17A
(1589343716.903285) vcan11 2E2#B389724DC3CC6515
(1589343717.103753) vcan11 1BB#9D02623475905618
(1589343717.303988) vcan11 34D#8F
(1589343717.504246) vcan11 51B#E9E1834B4341942F
(1589343717.704498) vcan11 2A5#
(1589343717.904769) vcan11 3DF#0D71164572AB9D03
(1589343718.105004) vcan11 01A#F16FE411B32F
(1589343718.305152) vcan11 192#
(1589343718.505271) vcan11 70D#37299616C8609559
(1589343718.705489) vcan11 1B4#3DF1EB7101
(1589343718.906050) vcan11 6B6#E08A2F78D283990F
(1589343719.106256) vcan11 2F8#15C52D3F9D15C73B
(1589343719.306691) vcan11 4F9#0A635C1AD8
(1589343719.507179) vcan11 060#4A84D83A7A10DE
(1589343719.707599) vcan11 72D#2D40E505C048A23D
(1589343719.907841) vcan11 32B#34A5
(1589343720.108116) vcan11 7CA#012BB9357F294048
(1589343720.308605) vcan11 241#8066821EF7686474
(1589343720.508853) vcan11 10B#
(1589343720.709054) vcan11 629#A1F90E5D22CB706C
(1589343720.909270) vcan11 174#FBA3AB23D4115A50
(1589343721.109466) vcan11 0C2#4E223859F0
(1589343721.309674) vcan11 481#B0B05E2AAC97F434
(1589343721.509812) vcan11 59E#E5611811
(1589343721.709963) vcan11 450#E87EC467911E
(1589343721.910188) vcan11 124#89875F532FC29A44
(1589343722.110403) vcan11 6C9#33A6
(1589343722.310646) vcan11 631#1500CF63
(1589343722.510894) vcan11 47F#
(1589343722.711109) vcan11 455#3195F77DD6E83F11
(1589343722.911284) vcan11 645#83
(1589343723.111505) vcan11 3C6#4C013E7216C02150
(1589343723.311905) vcan11 74E#A8DE1C2F
(1589343723.512166) vcan11 59D#A2
(1589343723.712422) vcan11 283#5871A074B5
(1589343723.912605) vcan11 0A9#5BD0B161281D6134
(1589343724.112762) vcan11 57D#694A9C45D3
(1589343724.313092) vcan11 59E#A9CA2857E31B3A2C
(1589343724.513541) vcan11 57C#C7C7F37E42C1717D
(1589343724.713945) vcan11 594#598193
(1589343724.914430) vcan11 148#55
(1589343725.114699) vcan11 632#4BEBBF28B5A006
(1589343725.314928) vcan11 0CC#6AA169
(1589343725.515408) vcan11 611#9D4E05568E
(1589343725.715652) vcan11 39B#61C5A21B39D9
(1589343725.915878) vcan11 0A1#1DF5EB301E9E1F4B
(1589343726.116319) vcan11 337#605F9148
(1589343726.316558) vcan11 5F7#AEA59B173FCF456C
(1589343726.516726) vcan11 0BA#247EC3
(1589343726.717230) vcan11 2FA#A2A7086BC6FB264F
(1589343726.917721) vcan11 613#3B2DCB702494B353
(1589343727.118277) vcan11 2D2#B2776D296DDE0336
(1589343727.318477) vcan11 4DF#A6B7B53A
(1589343727.518654) vcan11 51F#9E2BC7
(1589343727.718821) vcan11 1A7#22B1D74C9FEF923C
(1589343727.918963) vcan11 3B8#DE
(1589343728.119069) vcan11 1D4#5FB354
(1589343728.319299) vcan11 672#95
(1589343728.519524) vcan11 40E#A9
(1589343728.719759) vcan11 1A9#4D3D61518856282C
(1589343728.919904) vcan11 570#09E4CF
(1589343729.120277) vcan11 1B7#E52A15215E0B3A
(1589343729.320523) vcan11 2A6#FDFACC4F5F066D3B
(1589343729.520724) vcan11 2D9#D2B2BF39ADE4CC6D
(1589343729.720947) vcan11 6DF#7C
(1589343729.921202) vcan11 133#D709
(1589343730.121423) vcan11 7E3#
(1589343730.321674) vcan11 2DC#15789F3B4C387549
(1589343730.521914) vcan11 661#DBBA85221898CF69
(1589343730.722383) vcan11 3C5#77
